Time [s],Channel 0,Channel 1,Channel 2
0.000000000,0,0,0
0.010356400,0,0,1
0.011737660,0,0,0
0.028787380,0,0,1
0.030168900,0,0,0
0.047215640,0,0,1
0.048596860,0,0,0
0.065646760,0,0,1
0.067028400,0,0,0
0.084077560,0,0,1
0.085459100,0,0,0
0.102507940,0,0,1
0.103889460,0,0,0
0.120938620,0,0,1
0.122320160,0,0,0
0.139368360,0,0,1
0.140749980,0,0,0
0.157797540,0,0,1
0.159179180,0,0,0
0.176227300,0,0,1
0.177608500,0,0,0
0.194658200,0,0,1
0.196039800,0,0,0
0.213086980,0,0,1
0.214468260,0,0,0
0.231515200,0,0,1
0.232896440,0,0,0
0.249944880,0,0,1
0.251326300,0,0,0
0.268376340,0,0,1
0.269757760,0,0,0
0.286807400,0,0,1
0.288188880,0,0,0
0.305238260,0,0,1
0.306619820,0,0,0
0.323667520,0,0,1
0.325048720,0,0,0
0.342096420,0,0,1
0.343477620,0,0,0
0.360527060,0,0,1
0.361908560,0,0,0
0.378958640,0,0,1
0.380340300,0,0,0
0.397390860,0,0,1
0.398772520,0,0,0
0.415821680,0,0,1
0.417202920,0,0,0
0.434250640,0,0,1
0.435631960,0,0,0
0.452680360,0,0,1
0.454061920,0,0,0
0.471109860,0,0,1
0.472491080,0,0,0
0.489539120,0,0,1
0.490920680,0,0,0
0.507969380,0,0,1
0.509350980,0,0,0
0.526400000,0,0,1
0.527781620,0,0,0
0.544831700,0,0,1
0.546213160,0,0,0
0.563262380,0,0,1
0.564643900,0,0,0
0.581692060,0,0,1
0.583073560,0,0,0
0.600122720,0,0,1
0.601504320,0,0,0
0.618554220,0,0,1
0.619935520,0,0,0
0.636984100,0,0,1
0.638365460,0,0,0
0.655414780,0,0,1
0.656796500,0,0,0
0.673846320,0,0,1
0.675227620,0,0,0
0.692277400,0,0,1
0.693658940,0,0,0
0.710706540,0,0,1
0.712087820,0,0,0
0.729137120,0,0,1
0.730518800,0,0,0
0.747569600,0,0,1
0.748951100,0,0,0
0.766001180,0,0,1
0.767382840,0,0,0
0.784431560,0,0,1
0.785813240,0,0,0
0.802861880,0,0,1
0.804243260,0,0,0
0.821292660,0,0,1
0.822674340,0,0,0
0.839725400,0,0,1
0.841107120,0,0,0
0.858156320,0,0,1
0.859538000,0,0,0
0.876587820,0,0,1
0.877969140,0,0,0
0.895017780,0,0,1
0.896399500,0,0,0
0.913450580,0,0,1
0.914832360,0,0,0
0.931882620,0,0,1
0.933263960,0,0,0
0.950313540,0,0,1
0.951695220,0,0,0
0.968745980,0,0,1
0.970127620,0,0,0
0.987178240,0,0,1
0.988559500,0,0,0
1.005607160,0,0,1
1.006988820,0,0,0
1.024039380,0,0,1
1.025421040,0,0,0
1.042470720,0,0,1
1.043852080,0,0,0
1.060900380,0,0,1
1.062281840,0,0,0
1.067851900,0,1,0
1.077928400,0,0,0
1.079330240,0,0,1
1.080711900,0,0,0
1.097761240,0,0,1
1.099142920,0,0,0
1.116192760,0,0,1
1.117574200,0,0,0
1.134622400,0,0,1
1.136004040,0,0,0
1.153053700,0,0,1
1.154435000,0,0,0
1.171484540,0,0,1
1.172866200,0,0,0
1.189916360,0,0,1
1.191298000,0,0,0
1.208345440,0,0,1
1.209726940,0,0,0
1.226776600,0,0,1
1.228158200,0,0,0
1.245206880,0,0,1
1.246588260,0,0,0
1.263636940,0,0,1
1.265018620,0,0,0
1.282069060,0,0,1
1.283450460,0,0,0
1.300499300,0,0,1
1.301880660,0,0,0
1.318930660,0,0,1
1.320312180,0,0,0
1.337360880,0,0,1
1.338742500,0,0,0
1.355793080,0,0,1
1.357174640,0,0,0
1.374224080,0,0,1
1.375605720,0,0,0
1.392655740,0,0,1
1.394037080,0,0,0
1.411085760,0,0,1
1.412467020,0,0,0
1.429514620,0,0,1
1.430896180,0,0,0
1.447945940,0,0,1
1.449327220,0,0,0
1.466376220,0,0,1
1.467757680,0,0,0
1.484806940,0,0,1
1.486188640,0,0,0
1.503237900,0,0,1
1.504619580,0,0,0
1.521669100,0,0,1
1.523050900,0,0,0
1.540100980,0,0,1
1.541482620,0,0,0
1.558532220,0,0,1
1.559914060,0,0,0
1.576964660,0,0,1
1.578346340,0,0,0
1.595395440,0,0,1
1.596777140,0,0,0
1.613826740,0,0,1
1.615208340,0,0,0
1.632258640,0,0,1
1.633640300,0,0,0
1.650689680,0,0,1
1.652070980,0,0,0
1.669121640,0,0,1
1.670503160,0,0,0
1.687554280,0,0,1
1.688935580,0,0,0
1.705984780,0,0,1
1.707366460,0,0,0
1.724416380,0,0,1
1.725798060,0,0,0
1.742847240,0,0,1
1.744228900,0,0,0
1.761278800,0,0,1
1.762660240,0,0,0
1.779710460,0,0,1
1.781091840,0,0,0
1.798143100,0,0,1
1.799524700,0,0,0
1.816573620,0,0,1
1.817955300,0,0,0
1.835005040,0,0,1
1.836386720,0,0,0
1.853437360,0,0,1
1.854819000,0,0,0
1.871869940,0,0,1
1.873251680,0,0,0
1.890303000,0,0,1
1.891684360,0,0,0
1.908733560,0,0,1
1.910114920,0,0,0
1.927164840,0,0,1
1.928546480,0,0,0
1.945597660,0,0,1
1.946979340,0,0,0
1.964027400,0,0,1
1.965408780,0,0,0
1.982458480,0,0,1
1.983840160,0,0,0
2.000889740,0,0,1
2.002271440,0,0,0
2.019321000,0,0,1
2.020702360,0,0,0
2.037752840,0,0,1
2.039134520,0,0,0
2.056184060,0,0,1
2.057565680,0,0,0
2.074614720,0,0,1
2.075996300,0,0,0
2.093047120,0,0,1
2.094428440,0,0,0
2.111478940,0,0,1
2.112860600,0,0,0
2.129911340,0,0,1
2.131292780,0,0,0
2.148341500,0,0,1
2.149723160,0,0,0
2.166773340,0,0,1
2.168155000,0,0,0
2.185203680,0,0,1
2.186585380,0,0,0
2.203635860,0,0,1
2.205017540,0,0,0
2.222066420,0,0,1
2.223447760,0,0,0
2.240497300,0,0,1
2.241878620,0,0,0
2.258928840,0,0,1
2.260310580,0,0,0
2.277360080,0,0,1
2.278741760,0,0,0
2.295792180,0,0,1
2.297173880,0,0,0
2.314223340,0,0,1
2.315605040,0,0,0
2.321601720,0,0,1
2.322983000,0,0,0
2.340030380,0,0,1
2.341411580,0,0,0
2.358459240,0,0,1
2.359840920,0,0,0
2.376888780,0,0,1
2.378270360,0,0,0
2.395320560,0,0,1
2.396702080,0,0,0
2.413750680,0,0,1
2.415132260,0,0,0
2.432181200,0,0,1
2.433562420,0,0,0
2.450611180,0,0,1
2.451992660,0,0,0
2.469039700,0,0,1
2.470420980,0,0,0
2.487468500,0,0,1
2.488849960,0,0,0
2.505898340,0,0,1
2.507279540,0,0,0
2.524329040,0,0,1
2.526628520,0,0,0
2.542758020,0,0,1
2.545057340,0,0,0
2.561185840,0,0,1
2.563484700,0,0,0
2.579613080,0,0,1
2.581912540,0,0,0
2.598041240,0,0,1
2.600340400,0,0,0
2.616470140,0,0,1
2.618768920,0,0,0
2.634898400,0,0,1
2.637197720,0,0,0
2.653327920,0,0,1
2.655626840,0,0,0
2.671755980,0,0,1
2.674055240,0,0,0
2.690184620,0,0,1
2.692484200,0,0,0
2.708614620,0,0,1
2.710914140,0,0,0
2.727043580,0,0,1
2.729342760,0,0,0
2.745473300,0,0,1
2.747772220,0,0,0
2.763903120,0,0,1
2.766202340,0,0,0
2.782333380,0,0,1
2.784633000,0,0,0
2.800763680,0,0,1
2.803063260,0,0,0
2.819193320,0,0,1
2.821492840,0,0,0
2.837624060,0,0,1
2.839922940,0,0,0
2.850183500,1,0,0
2.851050980,1,1,0
2.851054460,1,0,0
2.856052880,1,0,1
2.858352020,1,0,0
2.859196400,0,0,0
2.874480860,0,0,1
2.876780000,0,0,0
2.892911060,0,0,1
2.895210460,0,0,0
2.911341520,0,0,1
2.913640860,0,0,0
2.929771480,0,0,1
2.932070620,0,0,0
2.948201300,0,0,1
2.950500900,0,0,0
2.966632340,0,0,1
2.968931920,0,0,0
2.985063380,0,0,1
2.987362580,0,0,0
3.003493220,0,0,1
3.005792200,0,0,0
3.021923840,0,0,1
3.024222740,0,0,0
3.040352860,0,0,1
3.042652280,0,0,0
3.058782440,0,0,1
3.061082020,0,0,0
3.077213000,0,0,1
3.079512560,0,0,0
3.095644740,0,0,1
3.097943700,0,0,0
3.114073720,0,0,1
3.116372720,0,0,0
3.132502820,0,0,1
3.134802400,0,0,0
3.150932100,0,0,1
3.153231560,0,0,0
3.169361420,0,0,1
3.171661000,0,0,0
3.187789800,0,0,1
3.190089320,0,0,0
3.206222780,0,0,1
3.208521980,0,0,0
3.224652520,0,0,1
3.226952180,0,0,0
3.243084020,0,0,1
3.245383180,0,0,0
3.261514600,0,0,1
3.263814120,0,0,0
3.279944680,0,0,1
3.282244340,0,0,0
3.298375540,0,0,1
3.300674580,0,0,0
3.316805460,0,0,1
3.319104480,0,0,0
3.335234640,0,0,1
3.337534420,0,0,0
3.353665800,0,0,1
3.355965000,0,0,0
3.372096520,0,0,1
3.374396260,0,0,0
3.390527380,0,0,1
3.392827020,0,0,0
3.408958420,0,0,1
3.411257560,0,0,0
3.427387180,0,0,1
3.429686420,0,0,0
3.445817960,0,0,1
3.448117000,0,0,0
3.464247360,0,0,1
3.466546760,0,0,0
3.482677800,0,0,1
3.484977040,0,0,0
3.501109080,0,0,1
3.503408080,0,0,0
3.519538980,0,0,1
3.521838020,0,0,0
3.537968940,0,0,1
3.538427940,0,0,0
3.556397340,0,0,1
3.556856340,0,0,0
3.574828560,0,0,1
3.575287680,0,0,0
3.593259580,0,0,1
3.593718720,0,0,0
3.611688340,0,0,1
3.612147320,0,0,0
3.630119520,0,0,1
3.630578540,0,0,0
3.648549200,0,0,1
3.649008200,0,0,0
3.666979560,0,0,1
3.667438680,0,0,0
3.685411160,0,0,1
3.685870160,0,0,0
3.703842100,0,0,1
3.704301080,0,0,0
3.722273240,0,0,1
3.722732340,0,0,0
3.740704340,0,0,1
3.741163460,0,0,0
3.759135400,0,0,1
3.759594520,0,0,0
3.777567720,0,0,1
3.778026860,0,0,0
3.795999540,0,0,1
3.796458540,0,0,0
3.814429540,0,0,1
3.814888620,0,0,0
3.832861020,0,0,1
3.833320120,0,0,0
3.851292000,0,0,1
3.851751140,0,0,0
3.869722900,0,0,1
3.870182000,0,0,0
3.888153500,0,0,1
3.888612680,0,0,0
3.906583460,0,0,1
3.907042460,0,0,0
3.925013460,0,0,1
3.925472560,0,0,0
3.943443480,0,0,1
3.943902580,0,0,0
3.961874780,0,0,1
3.962333880,0,0,0
3.980305820,0,0,1
3.980764800,0,0,0
3.998736440,0,0,1
3.999195520,0,0,0
4.017167960,0,0,1
4.017626960,0,0,0
4.035597980,0,0,1
4.036057020,0,0,0
4.054027960,0,0,1
4.054487040,0,0,0
4.072459980,0,0,1
4.072919080,0,0,0
4.090888940,0,0,1
4.091347940,0,0,0
4.109319100,0,0,1
4.109778140,0,0,0
4.127749580,0,0,1
4.128208580,0,0,0
4.146179760,0,0,1
4.146638920,0,0,0
4.164610660,0,0,1
4.165069680,0,0,0
4.183041060,0,0,1
4.183500200,0,0,0
4.201472900,0,0,1
4.201932040,0,0,0
4.219903920,0,0,1
4.220363040,0,0,0
4.238332280,0,0,1
4.238791280,0,0,0
4.256763960,0,0,1
4.257223100,0,0,0
4.275193140,0,0,1
4.275652160,0,0,0
4.293620840,0,0,1
4.294079880,0,0,0
4.312052160,0,0,1
4.312511260,0,0,0
4.330482380,0,0,1
4.330941360,0,0,0
4.348911320,0,0,1
4.349370300,0,0,0
4.367342400,0,0,1
4.367801560,0,0,0
4.385774020,0,0,1
4.386233140,0,0,0
4.404205480,0,0,1
4.404664480,0,0,0
4.422635960,0,0,1
4.423095100,0,0,0
4.441066380,0,0,1
4.441525380,0,0,0
4.459494800,0,0,1
4.459953780,0,0,0
4.477926500,0,0,1
4.478385520,0,0,0
4.496357520,0,0,1
4.496816540,0,0,0
4.514788940,0,0,1
4.515247960,0,0,0
4.533221080,0,0,1
4.535520460,0,0,0
4.551651680,0,0,1
4.553951240,0,0,0
4.570083100,0,0,1
4.572382600,0,0,0
4.588513920,0,0,1
4.590813520,0,0,0
4.606943900,0,0,1
4.609243600,0,0,0
4.625375900,0,0,1
4.627675400,0,0,0
4.643806260,0,0,1
4.646105960,0,0,0
4.662237580,0,0,1
4.664537160,0,0,0
4.680667600,0,0,1
4.682966940,0,0,0
4.699096440,0,0,1
4.701395780,0,0,0
4.717527440,0,0,1
4.719827100,0,0,0
4.735959620,0,0,1
4.738259260,0,0,0
4.754390940,0,0,1
4.756690600,0,0,0
4.772822380,0,0,1
4.775121480,0,0,0
4.791253060,0,0,1
4.793552180,0,0,0
4.809682600,0,0,1
4.811981860,0,0,0
4.828113100,0,0,1
4.830412100,0,0,0
4.846543220,0,0,1
4.848842660,0,0,0
4.864974320,0,0,1
4.867273680,0,0,0
4.883404200,0,0,1
4.885703820,0,0,0
4.901835280,0,0,1
4.904134700,0,0,0
4.920266080,0,0,1
4.922565760,0,0,0
4.938698060,0,0,1
4.940997100,0,0,0
4.957128480,0,0,1
4.959428120,0,0,0
4.975559380,0,0,1
4.977858880,0,0,0
4.993991140,0,0,1
4.996290620,0,0,0
5.012422500,0,0,1
5.014722220,0,0,0
5.030852560,0,0,1
5.033151940,0,0,0
5.049284140,0,0,1
5.051583600,0,0,0
5.067713180,0,0,1
5.070012260,0,0,0
5.086142900,0,0,1
5.088442120,0,0,0
5.104571960,0,0,1
5.106871600,0,0,0
5.123002640,0,0,1
5.125301740,0,0,0
5.141433180,0,0,1
5.143732780,0,0,0
5.159865440,0,0,1
5.162164960,0,0,0
5.178296220,0,0,1
5.180595700,0,0,0
5.196727880,0,0,1
5.199026880,0,0,0
5.215157740,0,0,1
5.217457340,0,0,0
5.233588080,0,0,1
5.235887680,0,0,0
5.252017860,0,0,1
5.254317400,0,0,0
5.270448880,0,0,1
5.272748280,0,0,0
5.288878640,0,0,1
5.291178360,0,0,0
5.307308600,0,0,1
5.309608160,0,0,0
5.325738940,0,0,1
5.328038100,0,0,0
5.344168400,0,0,1
5.346467920,0,0,0
5.362599200,0,0,1
5.364898780,0,0,0
5.381030640,0,0,1
5.383329660,0,0,0
5.399460680,0,0,1
5.401760000,0,0,0
5.417889680,0,0,1
5.420188680,0,0,0
5.436320720,0,0,1
5.438620100,0,0,0
5.454750420,0,0,1
5.457049680,0,0,0
5.473180400,0,0,1
5.475479960,0,0,0
5.491611760,0,0,1
5.493911080,0,0,0
5.510040840,0,0,1
5.512339840,0,0,0
5.528472180,0,0,1
5.528931200,0,0,0
5.546901860,0,0,1
5.547360860,0,0,0
5.565330140,0,0,1
5.565789140,0,0,0
5.583758900,0,0,1
5.584217960,0,0,0
5.602187440,0,0,1
5.602646460,0,0,0
5.620616460,0,0,1
5.621075440,0,0,0
5.639045620,0,0,1
5.639504620,0,0,0
5.657474000,0,0,1
5.657932980,0,0,0
5.675904680,0,0,1
5.676363680,0,0,0
5.694335560,0,0,1
5.694794680,0,0,0
5.712766400,0,0,1
5.713225520,0,0,0
5.731196240,0,0,1
5.731655380,0,0,0
5.749628100,0,0,1
5.750087200,0,0,0
5.768059760,0,0,1
5.768518900,0,0,0
5.786489660,0,0,1
5.786948800,0,0,0
5.804921580,0,0,1
5.805380600,0,0,0
5.823350440,0,0,1
5.823809420,0,0,0
5.841780400,0,0,1
5.842239520,0,0,0
5.860209640,0,0,1
5.860668620,0,0,0
5.878639660,0,0,1
5.879098660,0,0,0
5.897069420,0,0,1
5.897528440,0,0,0
5.915501120,0,0,1
5.915960260,0,0,0
5.933931020,0,0,1
5.934390160,0,0,0
5.952359780,0,0,1
5.952818920,0,0,0
5.970791160,0,0,1
5.971250260,0,0,0
5.989221060,0,0,1
5.989680200,0,0,0
6.007651640,0,0,1
6.008110660,0,0,0
6.026080360,0,0,1
6.026539360,0,0,0
6.044510240,0,0,1
6.044969340,0,0,0
6.062940240,0,0,1
6.063399360,0,0,0
6.081371520,0,0,1
6.081830520,0,0,0
6.099800160,0,0,1
6.100259280,0,0,0
6.118231280,0,0,1
6.118690400,0,0,0
6.136664480,0,0,1
6.137123620,0,0,0
6.155095700,0,0,1
6.155554680,0,0,0
6.173526180,0,0,1
6.173985160,0,0,0
6.191957140,0,0,1
6.192416260,0,0,0
6.210386880,0,0,1
6.210845980,0,0,0
6.228816600,0,0,1
6.229275620,0,0,0
6.247247120,0,0,1
6.247706260,0,0,0
6.265676360,0,0,1
6.266135360,0,0,0
6.284107440,0,0,1
6.284566420,0,0,0
6.302537920,0,0,1
6.302997040,0,0,0
6.320966020,0,0,1
6.321425020,0,0,0
6.339396040,0,0,1
6.339855040,0,0,0
6.357824840,0,0,1
6.358283940,0,0,0
6.376253240,0,0,1
6.376712240,0,0,0
6.394683980,0,0,1
6.395143120,0,0,0
6.413114640,0,0,1
6.413573760,0,0,0
6.431543100,0,0,1
6.432002100,0,0,0
6.449974480,0,0,1
6.450433580,0,0,0
6.468404760,0,0,1
6.468863880,0,0,0
6.486833980,0,0,1
6.487292980,0,0,0
6.505263740,0,0,1
6.505722820,0,0,0
6.523693680,0,0,1
6.524152660,0,0,0
6.542122660,0,0,1
6.544422140,0,0,0
6.560553480,0,0,1
6.562852540,0,0,0
6.578981780,0,0,1
6.581281340,0,0,0
6.597412220,0,0,1
6.599711840,0,0,0
6.615843840,0,0,1
6.618143460,0,0,0
6.634273760,0,0,1
6.636573180,0,0,0
6.652703940,0,0,1
6.655003660,0,0,0
6.671134920,0,0,1
6.673434040,0,0,0
6.689565440,0,0,1
6.691865020,0,0,0
6.707996700,0,0,1
6.710296280,0,0,0
6.726428480,0,0,1
6.728728000,0,0,0
6.744858980,0,0,1
6.747158680,0,0,0
6.763289860,0,0,1
6.765589180,0,0,0
6.781719980,0,0,1
6.784019000,0,0,0
6.800149520,0,0,1
6.802449220,0,0,0
6.818580420,0,0,1
6.820879740,0,0,0
6.837010660,0,0,1
6.839309760,0,0,0
6.855441640,0,0,1
6.857740620,0,0,0
6.873871780,0,0,1
6.876170760,0,0,0
6.892300800,0,0,1
6.894599940,0,0,0
6.910730560,0,0,1
6.913030080,0,0,0
6.929162640,0,0,1
6.931462260,0,0,0
6.947593440,0,0,1
6.949892640,0,0,0
6.966022440,0,0,1
6.968321960,0,0,0
6.984452620,0,0,1
6.986752120,0,0,0
7.002883940,0,0,1
7.005183720,0,0,0
7.021315140,0,0,1
7.023614760,0,0,0
7.039746900,0,0,1
7.042046080,0,0,0
7.058176160,0,0,1
7.060475800,0,0,0
7.076605540,0,0,1
7.078904640,0,0,0
7.095036080,0,0,1
7.097335740,0,0,0
7.113466220,0,0,1
7.115765560,0,0,0
7.131896280,0,0,1
7.134195940,0,0,0
7.150325280,0,0,1
7.152624920,0,0,0
7.168756040,0,0,1
7.171055440,0,0,0
7.187187360,0,0,1
7.189486480,0,0,0
7.205617620,0,0,1
7.207916740,0,0,0
7.224047720,0,0,1
7.226346840,0,0,0
7.242478060,0,0,1
7.244777680,0,0,0
7.260908640,0,0,1
7.263207880,0,0,0
7.279338280,0,0,1
7.281637300,0,0,0
7.297768400,0,0,1
7.300068220,0,0,0
7.316199300,0,0,1
7.318498880,0,0,0
7.334628320,0,0,1
7.336928000,0,0,0
7.353059020,0,0,1
7.355358700,0,0,0
7.371489420,0,0,1
7.373789000,0,0,0
7.389920660,0,0,1
7.392220200,0,0,0
7.408350480,0,0,1
7.410650120,0,0,0
7.426779800,0,0,1
7.429079240,0,0,0
7.445208620,0,0,1
7.447508260,0,0,0
7.463638560,0,0,1
7.465938020,0,0,0
7.482067080,0,0,1
7.484366760,0,0,0
7.500497540,0,0,1
7.502796740,0,0,0
7.518928380,0,0,1
7.521228060,0,0,0
7.537359780,0,0,1
7.538741340,0,0,0
7.555790100,0,0,1
7.557171360,0,0,0
7.574219140,0,0,1
7.575600740,0,0,0
7.592650640,0,0,1
7.594032120,0,0,0
7.611081240,0,0,1
7.612462820,0,0,0
7.629512700,0,0,1
7.630894320,0,0,0
7.647943140,0,0,1
7.649324420,0,0,0
7.666373520,0,0,1
7.667754780,0,0,0
7.684801960,0,0,1
7.686183560,0,0,0
7.703232340,0,0,1
7.704613880,0,0,0
7.721661720,0,0,1
7.723043360,0,0,0
7.740091160,0,0,1
7.741472520,0,0,0
7.758520760,0,0,1
7.759902320,0,0,0
7.776949540,0,0,1
7.778331180,0,0,0
7.795381000,0,0,1
7.796762620,0,0,0
7.813811040,0,0,1
7.815192260,0,0,0
7.832241460,0,0,1
7.833623060,0,0,0
7.850672160,0,0,1
7.852053440,0,0,0
7.869101080,0,0,1
7.870482740,0,0,0
7.887532640,0,0,1
7.888914240,0,0,0
7.905962820,0,0,1
7.907344460,0,0,0
7.924394520,0,0,1
7.925776160,0,0,0
7.942825180,0,0,1
7.944206420,0,0,0
7.961255760,0,0,1
7.962637000,0,0,0
7.979684120,0,0,1
7.981065620,0,0,0
7.998114660,0,0,1
7.999496240,0,0,0
8.016544560,0,0,1
8.017926140,0,0,0
8.034974080,0,0,1
8.036355460,0,0,0
8.053403800,0,0,1
8.054785140,0,0,0
8.071832480,0,0,1
8.073214100,0,0,0
8.090263620,0,0,1
8.091645240,0,0,0
8.108694600,0,0,1
8.110075880,0,0,0
8.127124440,0,0,1
8.128505620,0,0,0
8.145553380,0,0,1
8.146934820,0,0,0
8.163981420,0,0,1
8.165363000,0,0,0
8.182410580,0,0,1
8.183792100,0,0,0
8.200839680,0,0,1
8.202221300,0,0,0
8.219270720,0,0,1
8.220652400,0,0,0
8.237701660,0,0,1
8.239083320,0,0,0
8.256132260,0,0,1
8.257513900,0,0,0
8.274562440,0,0,1
8.275943920,0,0,0
8.292991660,0,0,1
8.294373020,0,0,0
8.311422080,0,0,1
8.312803300,0,0,0
8.329851040,0,0,1
8.331232360,0,0,0
8.348279720,0,0,1
8.349661340,0,0,0
8.366709040,0,0,1
8.368090340,0,0,0
8.385139680,0,0,1
8.386520920,0,0,0
8.403569380,0,0,1
8.404951020,0,0,0
8.422000880,0,0,1
8.423382380,0,0,0
8.440431020,0,0,1
8.441812720,0,0,0
8.458861680,0,0,1
8.460243480,0,0,0
8.477293660,0,0,1
8.478675220,0,0,0
8.495723740,0,0,1
8.497105060,0,0,0
8.514152020,0,0,1
8.515533600,0,0,0
8.532583080,0,0,1
8.533964680,0,0,0
8.551013740,0,0,1
8.552395320,0,0,0
8.569443780,0,0,1
8.570825000,0,0,0
8.587873220,0,0,1
8.589254460,0,0,0
8.606304560,0,0,1
8.607686120,0,0,0
8.624734380,0,0,1
8.626115600,0,0,0
8.643165300,0,0,1
8.644547020,0,0,0
8.661595260,0,0,1
8.662976820,0,0,0
8.680026340,0,0,1
8.681407940,0,0,0
8.698454320,0,0,1
8.699835540,0,0,0
8.716885220,0,0,1
8.718266760,0,0,0
8.735313560,0,0,1
8.736694760,0,0,0
8.753742560,0,0,1
8.755124160,0,0,0
8.772173360,0,0,1
8.773554900,0,0,0
8.790601380,0,0,1
8.791982680,0,0,0
8.809030880,0,0,1
8.810412300,0,0,0
8.827459080,0,0,1
8.828840320,0,0,0
8.845888680,0,0,1
8.847270280,0,0,0
8.864319800,0,0,1
8.865701280,0,0,0
8.882747740,0,0,1
8.884128960,0,0,0
8.901177460,0,0,1
8.902558700,0,0,0
8.919608240,0,0,1
8.920989760,0,0,0
8.938037780,0,0,1
8.939419200,0,0,0
8.956468820,0,0,1
8.957850060,0,0,0
8.974898820,0,0,1
8.976280000,0,0,0
8.993328780,0,0,1
8.994710400,0,0,0
9.011758840,0,0,1
9.013140500,0,0,0
9.030189040,0,0,1
9.031570240,0,0,0
9.048615300,0,0,1
9.049996820,0,0,0
9.067045000,0,0,1
9.068426500,0,0,0
9.085474520,0,0,1
9.086855820,0,0,0
9.103902580,0,0,1
9.105283780,0,0,0
9.122332600,0,0,1
9.123713800,0,0,0
9.140760220,0,0,1
9.142141680,0,0,0
9.159187660,0,0,1
9.160568840,0,0,0
9.177617020,0,0,1
9.178998180,0,0,0
9.196045920,0,0,1
9.197427520,0,0,0
9.207256040,1,0,0
9.208061240,1,1,0
9.208064320,1,0,0
9.214475780,1,0,1
9.215857300,1,0,0
9.216268300,0,0,0
9.232905540,0,0,1
9.234286700,0,0,0
9.251333880,0,0,1
9.252715340,0,0,0
9.269762340,0,0,1
9.271143880,0,0,0
9.288191400,0,0,1
9.289572540,0,0,0
9.306618320,0,0,1
9.307999580,0,0,0
9.325048260,0,0,1
9.326429380,0,0,0
9.343477500,0,0,1
9.344858640,0,0,0
9.361903920,0,0,1
9.363285440,0,0,0
9.380333400,0,0,1
9.381714940,0,0,0
9.398763520,0,0,1
9.400144720,0,0,0
9.417191980,0,0,1
9.418573540,0,0,0
9.435621540,0,0,1
9.437003060,0,0,0
9.454052060,0,0,1
9.455433240,0,0,0
9.472481880,0,0,1
9.473863460,0,0,0
9.490911720,0,0,1
9.492292960,0,0,0
9.509341820,0,0,1
9.510723020,0,0,0
9.527770540,0,0,1
9.529151740,0,0,0
9.546199940,0,0,1
9.547581520,0,0,0
9.564630740,0,0,1
9.566012360,0,0,0
9.583060880,0,0,1
9.584442420,0,0,0
9.601492140,0,0,1
9.602873280,0,0,0
9.619920700,0,0,1
9.621302260,0,0,0
9.638350760,0,0,1
9.639732160,0,0,0
9.656780700,0,0,1
9.658162280,0,0,0
9.675210880,0,0,1
9.676592320,0,0,0
9.693640100,0,0,1
9.695021540,0,0,0
9.712069220,0,0,1
9.713450680,0,0,0
9.730498860,0,0,1
9.731880360,0,0,0
9.748928600,0,0,1
9.750310100,0,0,0
9.767358300,0,0,1
9.768739840,0,0,0
9.785787960,0,0,1
9.787169320,0,0,0
9.804218060,0,0,1
9.805599240,0,0,0
9.822647360,0,0,1
9.824028900,0,0,0
9.841077360,0,0,1
9.842458640,0,0,0
9.859505700,0,0,1
9.860886900,0,0,0
9.877933360,0,0,1
9.879314540,0,0,0
9.896364280,0,0,1
9.897745600,0,0,0
9.914793220,0,0,1
9.916174800,0,0,0
9.933224020,0,0,1
9.934605260,0,0,0
9.951654160,0,0,1
9.953035600,0,0,0
9.970084680,0,0,1
9.971466280,0,0,0
9.988514300,0,0,1
9.989895960,0,0,0
10.006944600,0,0,1
10.008326160,0,0,0
10.025374680,0,0,1
10.026755840,0,0,0
10.043804840,0,0,1
10.045186480,0,0,0
10.062233600,0,0,1
10.063614820,0,0,0
10.080662700,0,0,1
10.082044260,0,0,0
10.099092340,0,0,1
