Time [s],Channel 0,Channel 1,Channel 2
0.000000000,0,0,0
0.015525760,0,0,1
0.016906360,0,0,0
0.033943460,0,0,1
0.035323680,0,0,0
0.052361540,0,0,1
0.053742180,0,0,0
0.070779960,0,0,1
0.072160580,0,0,0
0.089197180,0,0,1
0.090577720,0,0,0
0.107614300,0,0,1
0.108994540,0,0,0
0.126031700,0,0,1
0.127412260,0,0,0
0.144449000,0,0,1
0.145829560,0,0,0
0.162866520,0,0,1
0.164246700,0,0,0
0.181282340,0,0,1
0.182662960,0,0,0
0.199697940,0,0,1
0.201078460,0,0,0
0.218115120,0,0,1
0.219495360,0,0,0
0.236530480,0,0,1
0.237911040,0,0,0
0.254947700,0,0,1
0.256328200,0,0,0
0.273363420,0,0,1
0.274743980,0,0,0
0.291778940,0,0,1
0.293159480,0,0,0
0.310196840,0,0,1
0.311577420,0,0,0
0.328612540,0,0,1
0.329993120,0,0,0
0.347028480,0,0,1
0.348408980,0,0,0
0.365444500,0,0,1
0.366825140,0,0,0
0.383862420,0,0,1
0.385243000,0,0,0
0.402279600,0,0,1
0.403660140,0,0,0
0.420697180,0,0,1
0.422077760,0,0,0
0.439114820,0,0,1
0.440495460,0,0,0
0.457531900,0,0,1
0.458912560,0,0,0
0.475948580,0,0,1
0.477329100,0,0,0
0.494367500,0,0,1
0.495747740,0,0,0
0.512784280,0,0,1
0.514164620,0,0,0
0.531200380,0,0,1
0.532581040,0,0,0
0.549617540,0,0,1
0.550997760,0,0,0
0.568033000,0,0,1
0.569413600,0,0,0
0.586451160,0,0,1
0.587831700,0,0,0
0.604865700,0,0,1
0.606246260,0,0,0
0.623284140,0,0,1
0.624664400,0,0,0
0.641700820,0,0,1
0.643081380,0,0,0
0.660117380,0,0,1
0.661497700,0,0,0
0.678533360,0,0,1
0.679913980,0,0,0
0.696952080,0,0,1
0.698332500,0,0,0
0.715369520,0,0,1
0.716749800,0,0,0
0.733785120,0,0,1
0.735165520,0,0,0
0.752202500,0,0,1
0.753583080,0,0,0
0.770620800,0,0,1
0.772001060,0,0,0
0.789038100,0,0,1
0.790418540,0,0,0
0.807453580,0,0,1
0.808833820,0,0,0
0.825870620,0,0,1
0.827251300,0,0,0
0.844289020,0,0,1
0.845669440,0,0,0
0.862706800,0,0,1
0.864087300,0,0,0
0.881125040,0,0,1
0.882505660,0,0,0
0.899541940,0,0,1
0.900922220,0,0,0
0.917957160,0,0,1
0.919337400,0,0,0
0.936372220,0,0,1
0.937752820,0,0,0
0.954787420,0,0,1
0.956167980,0,0,0
0.973203560,0,0,1
0.974584180,0,0,0
0.991621580,0,0,1
0.993002200,0,0,0
1.010037840,0,0,1
1.011418080,0,0,0
1.016884340,0,1,0
1.026957660,0,0,0
1.028454820,0,0,1
1.029835060,0,0,0
1.046870200,0,0,1
1.048250800,0,0,0
1.065287260,0,0,1
1.066667840,0,0,0
1.083704740,0,0,1
1.085085040,0,0,0
1.102121080,0,0,1
1.103501600,0,0,0
1.120538000,0,0,1
1.121918460,0,0,0
1.138952800,0,0,1
1.140333400,0,0,0
1.157368720,0,0,1
1.158749260,0,0,0
1.175785320,0,0,1
1.177165920,0,0,0
1.194202240,0,0,1
1.195582560,0,0,0
1.212620600,0,0,1
1.214000960,0,0,0
1.231038660,0,0,1
1.232419200,0,0,0
1.249455920,0,0,1
1.250836400,0,0,0
1.267873080,0,0,1
1.269253600,0,0,0
1.286290240,0,0,1
1.287670780,0,0,0
1.304708440,0,0,1
1.306088960,0,0,0
1.323123460,0,0,1
1.324503680,0,0,0
1.341539560,0,0,1
1.342920040,0,0,0
1.359957380,0,0,1
1.361338020,0,0,0
1.378375640,0,0,1
1.379755920,0,0,0
1.396793460,0,0,1
1.398173920,0,0,0
1.415210740,0,0,1
1.416591340,0,0,0
1.433629460,0,0,1
1.435010040,0,0,0
1.452047340,0,0,1
1.453427580,0,0,0
1.470464180,0,0,1
1.471844520,0,0,0
1.488878720,0,0,1
1.490259320,0,0,0
1.507295860,0,0,1
1.508676260,0,0,0
1.525714300,0,0,1
1.527094900,0,0,0
1.544131860,0,0,1
1.545512420,0,0,0
1.562548740,0,0,1
1.563929340,0,0,0
1.580965240,0,0,1
1.582345480,0,0,0
1.599382160,0,0,1
1.600762760,0,0,0
1.617800100,0,0,1
1.619180800,0,0,0
1.636218040,0,0,1
1.637598320,0,0,0
1.654634520,0,0,1
1.656014900,0,0,0
1.673050280,0,0,1
1.674430520,0,0,0
1.691466780,0,0,1
1.692847340,0,0,0
1.709882800,0,0,1
1.711263440,0,0,0
1.728300760,0,0,1
1.729681020,0,0,0
1.746716980,0,0,1
1.748097640,0,0,0
1.765134180,0,0,1
1.766514700,0,0,0
1.783552320,0,0,1
1.784933000,0,0,0
1.801969740,0,0,1
1.803350020,0,0,0
1.820387640,0,0,1
1.821768120,0,0,0
1.838803940,0,0,1
1.840184200,0,0,0
1.857219060,0,0,1
1.858599280,0,0,0
1.875635800,0,0,1
1.877016060,0,0,0
1.894052720,0,0,1
1.895432980,0,0,0
1.912468820,0,0,1
1.913849440,0,0,0
1.930886640,0,0,1
1.932267240,0,0,0
1.949303760,0,0,1
1.950684440,0,0,0
1.967721520,0,0,1
1.969102100,0,0,0
1.986136560,0,0,1
1.987517200,0,0,0
2.004553760,0,0,1
2.005934440,0,0,0
2.022970540,0,0,1
2.024350860,0,0,0
2.041386080,0,0,1
2.042766480,0,0,0
2.059802380,0,0,1
2.061182600,0,0,0
2.078220080,0,0,1
2.079600740,0,0,0
2.096637840,0,0,1
2.098018460,0,0,0
2.115056660,0,0,1
2.116437320,0,0,0
2.133474460,0,0,1
2.134854940,0,0,0
2.151890840,0,0,1
2.153271100,0,0,0
2.167804820,1,0,0
2.167878460,0,0,0
2.170306400,0,0,1
2.171686740,0,0,0
2.172516360,1,0,0
2.172589940,0,0,0
2.177227500,1,0,0
2.177301080,0,0,0
2.181937320,1,0,0
2.182010920,0,0,0
2.186646780,1,0,0
2.186720340,0,0,0
2.188723540,0,0,1
2.190104180,0,0,0
2.191357140,1,0,0
2.191430720,0,0,0
2.196067860,1,0,0
2.196141500,0,0,0
2.200779560,1,0,0
2.200853160,0,0,0
2.205489500,1,0,0
2.205563040,0,0,0
2.207140180,0,0,1
2.208520780,0,0,0
2.210199220,1,0,0
2.210272800,0,0,0
2.214909500,1,0,0
2.214983080,0,0,0
2.219620120,1,0,0
2.219693700,0,0,0
2.224330520,1,0,0
2.224404080,0,0,0
2.225557000,0,0,1
2.226937640,0,0,0
2.229040740,1,0,0
2.229114300,0,0,0
2.233751100,1,0,0
2.233824700,0,0,0
2.238461020,1,0,0
2.238534600,0,0,0
2.243171300,1,0,0
2.243244880,0,0,0
2.243974680,0,0,1
2.245355300,0,0,0
2.247881300,1,0,0
2.247954900,0,0,0
2.252591620,1,0,0
2.252665200,0,0,0
2.257301760,1,0,0
2.257375320,0,0,0
2.262011880,1,0,0
2.262085480,0,0,0
2.262392060,0,0,1
2.263772720,0,0,0
2.266721700,1,0,0
2.266795300,0,0,0
2.271431720,1,0,0
2.271505260,0,0,0
2.276140420,1,0,0
2.276213980,0,0,0
2.280811380,0,0,1
2.280850140,1,0,1
2.280923720,0,0,1
2.282192040,0,0,0
2.285559160,1,0,0
2.285632740,0,0,0
2.290268040,1,0,0
2.290341600,0,0,0
2.294978180,1,0,0
2.295051800,0,0,0
2.299228640,0,0,1
2.299687580,1,0,1
2.299761200,0,0,1
2.300608900,0,0,0
2.304397020,1,0,0
2.304470580,0,0,0
2.309106740,1,0,0
2.309180320,0,0,0
2.313815940,1,0,0
2.313889520,0,0,0
2.317644440,0,0,1
2.318525520,1,0,1
2.318599080,0,0,1
2.319024800,0,0,0
2.323235180,1,0,0
2.323308760,0,0,0
2.327945260,1,0,0
2.328018860,0,0,0
2.332655100,1,0,0
2.332728700,0,0,0
2.336062240,0,0,1
2.337364920,1,0,1
2.337438500,0,0,1
2.337442460,0,0,0
2.342073560,1,0,0
2.342147140,0,0,0
2.346781960,1,0,0
2.346855540,0,0,0
2.351491240,1,0,0
2.351564840,0,0,0
2.354478460,0,0,1
2.355858720,0,0,0
2.356200100,1,0,0
2.356273640,0,0,0
2.360910040,1,0,0
2.360983660,0,0,0
2.361072960,0,0,1
2.362453460,0,0,0
2.365620200,1,0,0
2.365693800,0,0,0
2.365694280,1,0,0
2.365694300,0,0,0
2.370330220,1,0,0
2.370403800,0,0,0
2.375038980,1,0,0
2.375112540,0,0,0
2.379489240,0,0,1
2.379747280,1,0,1
2.379820820,0,0,1
2.380869640,0,0,0
2.384456400,1,0,0
2.384529960,0,0,0
2.389165640,1,0,0
2.389239180,0,0,0
2.393875140,1,0,0
2.393948720,0,0,0
2.397903780,0,0,1
2.398584900,1,0,1
2.398658500,0,0,1
2.399284300,0,0,0
2.403294500,1,0,0
2.403368060,0,0,0
2.408004860,1,0,0
2.408078440,0,0,0
2.412715280,1,0,0
2.412788840,0,0,0
2.412789500,1,0,0
2.412789520,0,0,0
2.416319940,0,0,1
2.417424340,1,0,1
2.417497960,0,0,1
2.417700500,0,0,0
2.422134120,1,0,0
2.422207680,0,0,0
2.426843880,1,0,0
2.426917460,0,0,0
2.431553540,1,0,0
2.431627100,0,0,0
2.434736700,0,0,1
2.436116880,0,0,0
2.436263580,1,0,0
2.436337180,0,0,0
2.440973380,1,0,0
2.441046940,0,0,0
2.445682420,1,0,0
2.445756000,0,0,0
2.450392500,1,0,0
2.450466080,0,0,0
2.453153180,0,0,1
2.454533780,0,0,0
2.455102880,1,0,0
2.455176480,0,0,0
2.459812240,1,0,0
2.459885820,0,0,0
2.464522180,1,0,0
2.464595760,0,0,0
2.469231740,1,0,0
2.469305300,0,0,0
2.471570620,0,0,1
2.472951120,0,0,0
2.473941100,1,0,0
2.474014660,0,0,0
2.478650800,1,0,0
2.478724400,0,0,0
2.483360620,1,0,0
2.483434220,0,0,0
2.488070480,1,0,0
2.488144080,0,0,0
2.489986580,0,0,1
2.491367060,0,0,0
2.492781720,1,0,0
2.492855300,0,0,0
2.497491620,1,0,0
2.497565160,0,0,0
2.502201060,1,0,0
2.502274640,0,0,0
2.506911160,1,0,0
2.506984720,0,0,0
2.508403140,0,0,1
2.509783340,0,0,0
2.511620800,1,0,0
2.511694420,0,0,0
2.516330460,1,0,0
2.516404040,0,0,0
2.521039720,1,0,0
2.521113260,0,0,0
2.525749160,1,0,0
2.525822700,0,0,0
2.526820140,0,0,1
2.528200300,0,0,0
2.530458780,1,0,0
2.530532360,0,0,0
2.535168400,1,0,0
2.535242000,0,0,0
2.539878220,1,0,0
2.539951780,0,0,0
2.544587320,1,0,0
2.544660860,0,0,0
2.545235480,0,0,1
2.546615700,0,0,0
2.549297060,1,0,0
2.549370620,0,0,0
2.554006340,1,0,0
2.554079920,0,0,0
2.558715800,1,0,0
2.558789380,0,0,0
2.563425100,1,0,0
2.563498660,0,0,0
2.563651740,0,0,1
2.565949580,0,0,0
2.568134760,1,0,0
2.568208340,0,0,0
2.572844900,1,0,0
2.572918520,0,0,0
2.577554820,1,0,0
2.577628400,0,0,0
2.577628540,1,0,0
2.577628560,0,0,0
2.582069020,0,0,1
2.582264060,1,0,1
2.582337620,0,0,1
2.584366820,0,0,0
2.586973600,1,0,0
2.587047140,0,0,0
2.591682860,1,0,0
2.591756440,0,0,0
2.596392120,1,0,0
2.596465720,0,0,0
2.600484840,0,0,1
2.601101760,1,0,1
2.601175320,0,0,1
2.602782100,0,0,0
2.605811400,1,0,0
2.605885000,0,0,0
2.610521580,1,0,0
2.610595160,0,0,0
2.615231720,1,0,0
2.615305300,0,0,0
2.618898780,0,0,1
2.619942060,1,0,1
2.620015640,0,0,1
2.621196340,0,0,0
2.624651640,1,0,0
2.624725180,0,0,0
2.629360940,1,0,0
2.629434500,0,0,0
2.634070000,1,0,0
2.634143580,0,0,0
2.637315300,0,0,1
2.638779200,1,0,1
2.638852760,0,0,1
2.639612660,0,0,0
2.643488300,1,0,0
2.643561860,0,0,0
2.648197240,1,0,0
2.648270800,0,0,0
2.652906580,1,0,0
2.652980200,0,0,0
2.655732360,0,0,1
2.657616500,1,0,1
2.657690080,0,0,1
2.658029820,0,0,0
2.662326180,1,0,0
2.662399720,0,0,0
2.667035720,1,0,0
2.667109340,0,0,0
2.671745660,1,0,0
2.671819220,0,0,0
2.674149480,0,0,1
2.676447440,0,0,0
2.676454160,1,0,0
2.676527740,0,0,0
2.681163060,1,0,0
2.681236620,0,0,0
2.685872440,1,0,0
2.685946000,0,0,0
2.690581060,1,0,0
2.690654640,0,0,0
2.692565520,0,0,1
2.694862980,0,0,0
2.695290920,1,0,0
2.695364480,0,0,0
2.700000240,1,0,0
2.700073800,0,0,0
2.704708660,1,0,0
2.704782240,0,0,0
2.709418720,1,0,0
2.709492280,0,0,0
2.710982560,0,0,1
2.713280420,0,0,0
2.714127680,1,0,0
2.714201260,0,0,0
2.718837760,1,0,0
2.718911340,0,0,0
2.723548080,1,0,0
2.723621660,0,0,0
2.723622560,1,0,0
2.723622580,0,0,0
2.728257200,1,0,0
2.728330820,0,0,0
2.729400660,0,0,1
2.731698600,0,0,0
2.732967620,1,0,0
2.733041200,0,0,0
2.737677900,1,0,0
2.737751500,0,0,0
2.742388440,1,0,0
2.742462020,0,0,0
2.747098240,1,0,0
2.747171840,0,0,0
2.747817800,0,0,1
2.750115740,0,0,0
2.751807720,1,0,0
2.751881320,0,0,0
2.756517580,1,0,0
2.756591160,0,0,0
2.761227180,1,0,0
2.761300780,0,0,0
2.765936920,1,0,0
2.766010480,0,0,0
2.766235360,0,0,1
2.768533340,0,0,0
2.770646340,1,0,0
2.770719900,0,0,0
2.775355480,1,0,0
2.775429080,0,0,0
2.780065500,1,0,0
2.780139100,0,0,0
2.784653840,0,0,1
2.784775660,1,0,1
2.784849260,0,0,1
2.786951600,0,0,0
2.789486500,1,0,0
2.789560080,0,0,0
2.794197000,1,0,0
2.794270620,0,0,0
2.798907580,1,0,0
2.798981180,0,0,0
2.803071300,0,0,1
2.803618160,1,0,1
2.803691780,0,0,1
2.805369140,0,0,0
2.808328840,1,0,0
2.808402420,0,0,0
2.813039300,1,0,0
2.813112920,0,0,0
2.817749800,1,0,0
2.817823380,0,0,0
2.821489220,0,0,1
2.822459620,1,0,1
2.822533200,0,0,1
2.823787120,0,0,0
2.827168860,1,0,0
2.827242400,0,0,0
2.831878840,1,0,0
2.831952440,0,0,0
2.836589640,1,0,0
2.836663240,0,0,0
2.839906060,0,0,1
2.841300160,1,0,1
2.841373720,0,0,1
2.842203500,0,0,0
2.846010620,1,0,0
2.846084220,0,0,0
2.850721000,1,0,0
2.850794600,0,0,0
2.855430280,1,0,0
2.855503840,0,0,0
2.858322200,0,0,1
2.860140240,1,0,1
2.860213820,0,0,1
2.860619680,0,0,0
2.864851340,1,0,0
2.864924900,0,0,0
2.869561060,1,0,0
2.869634680,0,0,0
2.874271240,1,0,0
2.874344840,0,0,0
2.876738780,0,0,1
2.878980760,1,0,1
2.879036280,1,0,0
2.879054320,0,0,0
2.883690340,1,0,0
2.883763940,0,0,0
2.888400020,1,0,0
2.888473600,0,0,0
2.893110600,1,0,0
2.893184180,0,0,0
2.895156440,0,0,1
2.897453820,0,0,0
2.897819660,1,0,0
2.897893240,0,0,0
2.902529780,1,0,0
2.902603340,0,0,0
2.907238240,1,0,0
2.907311820,0,0,0
2.911947260,1,0,0
2.912020800,0,0,0
2.913571740,0,0,1
2.915869680,0,0,0
2.916656960,1,0,0
2.916730540,0,0,0
2.917004060,0,1,0
2.917008220,0,0,0
2.921367040,1,0,0
2.921440600,0,0,0
2.926076580,1,0,0
2.926150160,0,0,0
2.930785260,1,0,0
2.930858820,0,0,0
2.931989880,0,0,1
2.934287540,0,0,0
2.935494840,1,0,0
2.935568400,0,0,0
2.940204360,1,0,0
2.940277960,0,0,0
2.944915160,1,0,0
2.944988760,0,0,0
2.949626280,1,0,0
2.949699880,0,0,0
2.950408300,0,0,1
2.952705860,0,0,0
2.954336600,1,0,0
2.954410180,0,0,0
2.959046740,1,0,0
2.959120300,0,0,0
2.963756860,1,0,0
2.963830440,0,0,0
2.968467200,1,0,0
2.968540740,0,0,0
2.968825120,0,0,1
2.971123020,0,0,0
2.973175540,1,0,0
2.973249100,0,0,0
2.977883260,1,0,0
2.977956800,0,0,0
2.982592080,1,0,0
2.982665660,0,0,0
2.987241900,0,0,1
2.987301040,1,0,1
2.987374600,0,0,1
2.989539840,0,0,0
2.992010520,1,0,0
2.992084080,0,0,0
2.996719340,1,0,0
2.996792940,0,0,0
3.001428280,1,0,0
3.001501840,0,0,0
3.005658280,0,0,1
3.006135520,1,0,1
3.006209020,0,0,1
3.007956220,0,0,0
3.010843100,1,0,0
3.010916600,0,0,0
3.015550380,1,0,0
3.015623940,0,0,0
3.020258360,1,0,0
3.020331920,0,0,0
3.024073720,0,0,1
3.024966320,1,0,1
3.025039860,0,0,1
3.026371400,0,0,0
3.029674060,1,0,0
3.029747660,0,0,0
3.034382600,1,0,0
3.034456140,0,0,0
3.039090640,1,0,0
3.039164160,0,0,0
3.042489580,0,0,1
3.043798280,1,0,1
3.043871840,0,0,1
3.044787320,0,0,0
3.048506460,1,0,0
3.048580020,0,0,0
3.053214140,1,0,0
3.053287680,0,0,0
3.057921900,1,0,0
3.057995460,0,0,0
3.060906380,0,0,1
3.062629920,1,0,1
3.062703480,0,0,1
3.063204040,0,0,0
3.067339120,1,0,0
3.067412680,0,0,0
3.072048280,1,0,0
3.072121840,0,0,0
3.076757540,1,0,0
3.076831100,0,0,0
3.079321980,0,0,1
3.081466160,1,0,1
3.081539740,0,0,1
3.081619860,0,0,0
3.086175180,1,0,0
3.086248740,0,0,0
3.090884460,1,0,0
3.090958020,0,0,0
3.095593500,1,0,0
3.095667060,0,0,0
3.097737820,0,0,1
3.100035380,0,0,0
3.100303040,1,0,0
3.100376620,0,0,0
3.105011560,1,0,0
3.105085100,0,0,0
3.109719680,1,0,0
3.109793240,0,0,0
3.114427640,1,0,0
3.114501220,0,0,0
3.116153940,0,0,1
3.118451920,0,0,0
3.119135520,1,0,0
3.119209080,0,0,0
3.123844340,1,0,0
3.123917900,0,0,0
3.128553420,1,0,0
3.128627000,0,0,0
3.133261400,1,0,0
3.133334980,0,0,0
3.134571680,0,0,1
3.136869100,0,0,0
3.137969460,1,0,0
3.138043000,0,0,0
3.142677660,1,0,0
3.142751200,0,0,0
3.147385140,1,0,0
3.147458680,0,0,0
3.152093260,1,0,0
3.152166820,0,0,0
3.152988500,0,0,1
3.155286400,0,0,0
3.156801500,1,0,0
3.156875020,0,0,0
3.161509420,1,0,0
3.161582960,0,0,0
3.166218100,1,0,0
3.166291660,0,0,0
3.170926840,1,0,0
3.171000380,0,0,0
3.171406500,0,0,1
3.173703940,0,0,0
3.175635280,1,0,0
3.175708860,0,0,0
3.180343100,1,0,0
3.180416660,0,0,0
3.185051240,1,0,0
3.185124800,0,0,0
3.189760140,1,0,0
3.189820800,1,0,1
3.189833680,0,0,1
3.192118160,0,0,0
3.194468300,1,0,0
3.194541840,0,0,0
3.199177360,1,0,0
3.199250900,0,0,0
3.203885720,1,0,0
3.203959280,0,0,0
3.208237840,0,0,1
3.208594100,1,0,1
3.208667620,0,0,1
3.210535240,0,0,0
3.213302700,1,0,0
3.213376240,0,0,0
3.218010040,1,0,0
3.218083600,0,0,0
3.222718420,1,0,0
3.222792000,0,0,0
3.226655000,0,0,1
3.227427280,1,0,1
3.227500860,0,0,1
3.228952660,0,0,0
3.232135000,1,0,0
3.232208520,0,0,0
3.236843760,1,0,0
3.236917320,0,0,0
3.241550980,1,0,0
3.241624520,0,0,0
3.245071380,0,0,1
3.246259860,1,0,1
3.246333480,0,0,1
3.247369260,0,0,0
3.250969980,1,0,0
3.251043540,0,0,0
3.255679620,1,0,0
3.255753220,0,0,0
3.260388220,1,0,0
3.260461760,0,0,0
3.263487140,0,0,1
3.265096160,1,0,1
3.265169720,0,0,1
3.265784980,0,0,0
3.269804120,1,0,0
3.269877660,0,0,0
3.274511800,1,0,0
3.274585320,0,0,0
3.279219180,1,0,0
3.279292700,0,0,0
3.281903280,0,0,1
3.283927120,1,0,1
3.284000680,0,0,1
3.284201140,0,0,0
3.288634900,1,0,0
3.288708440,0,0,0
3.293343340,1,0,0
3.293416920,0,0,0
3.298052000,1,0,0
3.298125560,0,0,0
3.300318340,0,0,1
3.302616200,0,0,0
3.302759340,1,0,0
3.302832860,0,0,0
3.307466620,1,0,0
3.307540180,0,0,0
3.312175000,1,0,0
3.312248560,0,0,0
3.316883100,1,0,0
3.316956680,0,0,0
3.318736100,0,0,1
3.321033380,0,0,0
3.321591780,1,0,0
3.321665360,0,0,0
3.326300300,1,0,0
3.326373860,0,0,0
3.331009040,1,0,0
3.331082600,0,0,0
3.335716140,1,0,0
3.335789680,0,0,0
3.337152420,0,0,1
3.339449680,0,0,0
3.340424500,1,0,0
3.340498060,0,0,0
3.345132120,1,0,0
3.345205640,0,0,0
3.349839960,1,0,0
3.349913480,0,0,0
3.354547680,1,0,0
3.354621240,0,0,0
3.355566280,0,0,1
3.357863720,0,0,0
3.359256260,1,0,0
3.359329780,0,0,0
3.363965560,1,0,0
3.364039100,0,0,0
3.368673700,1,0,0
3.368747280,0,0,0
3.373382260,1,0,0
3.373455820,0,0,0
3.373983460,0,0,1
3.376280900,0,0,0
3.378091360,1,0,0
3.378164920,0,0,0
3.382799840,1,0,0
3.382873400,0,0,0
3.387507280,1,0,0
3.387580860,0,0,0
3.392216180,1,0,0
3.392289740,0,0,0
3.392289780,1,0,0
3.392289800,0,0,0
3.392400240,0,0,1
3.394698100,0,0,0
3.396924960,1,0,0
3.396998520,0,0,0
3.401633580,1,0,0
3.401707140,0,0,0
3.406342000,1,0,0
3.406415580,0,0,0
3.410817780,0,0,1
3.411051060,1,0,1
3.411124660,0,0,1
3.413115620,0,0,0
3.415758920,1,0,0
3.415832460,0,0,0
3.420467360,1,0,0
3.420540940,0,0,0
3.425175540,1,0,0
3.425249100,0,0,0
3.429234540,0,0,1
3.429884020,1,0,1
3.429957580,0,0,1
3.431532520,0,0,0
3.434592240,1,0,0
3.434665800,0,0,0
3.439300900,1,0,0
3.439374440,0,0,0
3.439375320,1,0,0
3.439375340,0,0,0
3.444009460,1,0,0
3.444083040,0,0,0
3.447650820,0,0,1
3.448717580,1,0,1
3.448791120,0,0,1
3.449948100,0,0,0
3.453425860,1,0,0
3.453499440,0,0,0
3.458133300,1,0,0
3.458206880,0,0,0
3.462841000,1,0,0
3.462914560,0,0,0
3.466067040,0,0,1
3.467549300,1,0,1
3.467622860,0,0,1
3.468365080,0,0,0
3.472256820,1,0,0
3.472330380,0,0,0
3.476965360,1,0,0
3.477038920,0,0,0
3.481673620,1,0,0
3.481747180,0,0,0
3.484485580,0,0,1
3.486382500,1,0,1
3.486456060,0,0,1
3.486783220,0,0,0
3.491090820,1,0,0
3.491164360,0,0,0
3.495799660,1,0,0
3.495873240,0,0,0
3.500508660,1,0,0
3.500582220,0,0,0
3.502901060,0,0,1
3.505198540,0,0,0
3.505217380,1,0,0
3.505290940,0,0,0
3.509926320,1,0,0
3.509999900,0,0,0
3.514634940,1,0,0
3.514708520,0,0,0
3.519343840,1,0,0
3.519417360,0,0,0
3.521317580,0,0,1
3.523615060,0,0,0
3.524051960,1,0,0
3.524125500,0,0,0
3.528759780,1,0,0
3.528833340,0,0,0
3.533468240,1,0,0
3.533541800,0,0,0
3.538176880,1,0,0
3.538250460,0,0,0
3.539734180,0,0,1
3.542032080,0,0,0
3.542885980,1,0,0
3.542959580,0,0,0
3.547595020,1,0,0
3.547668580,0,0,0
3.552303200,1,0,0
3.552376780,0,0,0
3.557012120,1,0,0
3.557085660,0,0,0
3.558152880,0,0,1
3.560450680,0,0,0
3.561720600,1,0,0
3.561794180,0,0,0
3.566428980,1,0,0
3.566502560,0,0,0
3.571137420,1,0,0
3.571210940,0,0,0
3.575845680,1,0,0
3.575919200,0,0,0
3.576568920,0,0,1
3.577027580,0,0,0
3.580553720,1,0,0
3.580627320,0,0,0
3.585262660,1,0,0
3.585336220,0,0,0
3.589971480,1,0,0
3.590045060,0,0,0
3.594679800,1,0,0
3.594753360,0,0,0
3.594985920,0,0,1
3.595444600,0,0,0
3.599387820,1,0,0
3.599461380,0,0,0
3.604096060,1,0,0
3.604169580,0,0,0
3.608803180,1,0,0
3.608876700,0,0,0
3.613402660,0,0,1
3.613511680,1,0,1
3.613585240,0,0,1
3.613861460,0,0,0
3.618220760,1,0,0
3.618294340,0,0,0
3.622929120,1,0,0
3.623002640,0,0,0
3.627636360,1,0,0
3.627709900,0,0,0
3.631818240,0,0,1
3.632277080,0,0,0
3.632342920,1,0,0
3.632416460,0,0,0
3.637050780,1,0,0
3.637124320,0,0,0
3.641757640,1,0,0
3.641831180,0,0,0
3.646465540,1,0,0
3.646539080,0,0,0
3.650237280,0,0,1
3.650696080,0,0,0
3.651174020,1,0,0
3.651247600,0,0,0
3.655882160,1,0,0
3.655955700,0,0,0
3.660590440,1,0,0
3.660663960,0,0,0
3.665298120,1,0,0
3.665371680,0,0,0
3.668655920,0,0,1
3.669114600,0,0,0
3.670005700,1,0,0
3.670079260,0,0,0
3.674713500,1,0,0
3.674787040,0,0,0
3.679420900,1,0,0
3.679494440,0,0,0
3.684128340,1,0,0
3.684201880,0,0,0
3.687074460,0,0,1
3.687533160,0,0,0
3.688835900,1,0,0
3.688909460,0,0,0
3.693544180,1,0,0
3.693617720,0,0,0
3.698251780,1,0,0
3.698325300,0,0,0
3.702960740,1,0,0
3.703034340,0,0,0
3.705490900,0,0,1
3.705949700,0,0,0
3.707669260,1,0,0
3.707742800,0,0,0
3.712377760,1,0,0
3.712451300,0,0,0
3.717085720,1,0,0
3.717159280,0,0,0
3.721793420,1,0,0
3.721866960,0,0,0
3.723907560,0,0,1
3.724366360,0,0,0
3.726501340,1,0,0
3.726574900,0,0,0
3.731208440,1,0,0
3.731281980,0,0,0
3.735916080,1,0,0
3.735989620,0,0,0
3.740623840,1,0,0
3.740697380,0,0,0
3.742324640,0,0,1
3.742783320,0,0,0
3.745332260,1,0,0
3.745405800,0,0,0
3.750040180,1,0,0
3.750113740,0,0,0
3.754748320,1,0,0
3.754821880,0,0,0
3.759457560,1,0,0
3.759531120,0,0,0
3.760743280,0,0,1
3.761202100,0,0,0
3.764167200,1,0,0
3.764240780,0,0,0
3.768875800,1,0,0
