Time [s],Channel 0,Channel 1,Channel 2
0.000000000,0,0,0
0.002832200,0,0,1
0.004213580,0,0,0
0.021263920,0,0,1
0.022645560,0,0,0
0.039694820,0,0,1
0.041076140,0,0,0
0.058126540,0,0,1
0.059507900,0,0,0
0.076557380,0,0,1
0.077938700,0,0,0
0.094988480,0,0,1
0.096369860,0,0,0
0.113417580,0,0,1
0.114799280,0,0,0
0.131848080,0,0,1
0.133229700,0,0,0
0.150278660,0,0,1
0.151660320,0,0,0
0.168709440,0,0,1
0.170090760,0,0,0
0.187140160,0,0,1
0.188521500,0,0,0
0.205569320,0,0,1
0.206950840,0,0,0
0.224000460,0,0,1
0.225382140,0,0,0
0.242431620,0,0,1
0.243813300,0,0,0
0.260863120,0,0,1
0.262244720,0,0,0
0.279292820,0,0,1
0.280674500,0,0,0
0.297725080,0,0,1
0.299106520,0,0,0
0.316155780,0,0,1
0.317537060,0,0,0
0.334585680,0,0,1
0.335967300,0,0,0
0.353016180,0,0,1
0.354397440,0,0,0
0.371446780,0,0,1
0.372828140,0,0,0
0.389878660,0,0,1
0.391259960,0,0,0
0.408310120,0,0,1
0.409691820,0,0,0
0.426739820,0,0,1
0.428121460,0,0,0
0.445172360,0,0,1
0.446554000,0,0,0
0.463601920,0,0,1
0.464983440,0,0,0
0.482031660,0,0,1
0.483412920,0,0,0
0.500462680,0,0,1
0.501844340,0,0,0
0.518893780,0,0,1
0.520275380,0,0,0
0.537324640,0,0,1
0.538705940,0,0,0
0.555754500,0,0,1
0.557135720,0,0,0
0.574184920,0,0,1
0.575566320,0,0,0
0.592614380,0,0,1
0.593995540,0,0,0
0.611044760,0,0,1
0.612426260,0,0,0
0.629473780,0,0,1
0.630855400,0,0,0
0.647903360,0,0,1
0.649284620,0,0,0
0.666333180,0,0,1
0.667714640,0,0,0
0.684764460,0,0,1
0.686146060,0,0,0
0.703195680,0,0,1
0.704577380,0,0,0
0.721627280,0,0,1
0.723008860,0,0,0
0.740056860,0,0,1
0.741438120,0,0,0
0.758485020,0,0,1
0.759866660,0,0,0
0.776915440,0,0,1
0.778297040,0,0,0
0.795347820,0,0,1
0.796729500,0,0,0
0.812671620,0,1,0
0.813779340,0,1,1
0.815160640,0,1,0
0.822762380,0,0,0
0.832209800,0,0,1
0.833591480,0,0,0
0.850640440,0,0,1
0.852022060,0,0,0
0.869070000,0,0,1
0.870451620,0,0,0
0.887500680,0,0,1
0.888881980,0,0,0
0.905930160,0,0,1
0.907311740,0,0,0
0.924358580,0,0,1
0.925739980,0,0,0
0.942789620,0,0,1
0.944171260,0,0,0
0.961221300,0,0,1
0.962602580,0,0,0
0.979652840,0,0,1
0.981034480,0,0,0
0.998083500,0,0,1
0.999464800,0,0,0
1.016514460,0,0,1
1.017895720,0,0,0
1.034943680,0,0,1
1.036325320,0,0,0
1.053375440,0,0,1
1.054757100,0,0,0
1.071806440,0,0,1
1.073188100,0,0,0
1.090237580,0,0,1
1.091619200,0,0,0
1.108668520,0,0,1
1.110050240,0,0,0
1.127097900,0,0,1
1.128479620,0,0,0
1.145528820,0,0,1
1.146910400,0,0,0
1.163959540,0,0,1
1.165341080,0,0,0
1.182390060,0,0,1
1.183771540,0,0,0
1.200819840,0,0,1
1.202201140,0,0,0
1.219249500,0,0,1
1.220630920,0,0,0
1.237680380,0,0,1
1.239061740,0,0,0
1.256110740,0,0,1
1.257492420,0,0,0
1.274540960,0,0,1
1.275922580,0,0,0
1.292973100,0,0,1
1.294354780,0,0,0
1.311404620,0,0,1
1.312786280,0,0,0
1.329836200,0,0,1
1.331217860,0,0,0
1.348267860,0,0,1
1.349649560,0,0,0
1.366699340,0,0,1
1.368081000,0,0,0
1.385129460,0,0,1
1.386511120,0,0,0
1.403562740,0,0,1
1.404944180,0,0,0
1.421993180,0,0,1
1.423374740,0,0,0
1.440424620,0,0,1
1.441806280,0,0,0
1.458855060,0,0,1
1.460236420,0,0,0
1.477285640,0,0,1
1.478667360,0,0,0
1.495718380,0,0,1
1.497100060,0,0,0
1.514149580,0,0,1
1.515531160,0,0,0
1.532580380,0,0,1
1.533961900,0,0,0
1.551010860,0,0,1
1.552392520,0,0,0
1.569443500,0,0,1
1.570824820,0,0,0
1.587873780,0,0,1
1.589255360,0,0,0
1.606306300,0,0,1
1.607687840,0,0,0
1.624738240,0,0,1
1.626119780,0,0,0
1.643170260,0,0,1
1.644551620,0,0,0
1.661601880,0,0,1
1.662983520,0,0,0
1.680033360,0,0,1
1.681415020,0,0,0
1.698464620,0,0,1
1.699846280,0,0,0
1.713688440,0,0,1
1.715070220,0,0,0
1.732119360,0,0,1
1.733500960,0,0,0
1.750550720,0,0,1
1.751932440,0,0,0
1.768981600,0,0,1
1.770363240,0,0,0
1.787413580,0,0,1
1.788795240,0,0,0
1.805845540,0,0,1
1.807226780,0,0,0
1.824274840,0,0,1
1.825656120,0,0,0
1.842706360,0,0,1
1.844088000,0,0,0
1.861136360,0,0,1
1.862518020,0,0,0
1.879567000,0,0,1
1.880948280,0,0,0
1.897996040,0,0,1
1.899377560,0,0,0
1.916428940,0,0,1
1.918728320,0,0,0
1.934860380,0,0,1
1.937159980,0,0,0
1.953291920,0,0,1
1.955591560,0,0,0
1.971723820,0,0,1
1.974023240,0,0,0
1.990154240,0,0,1
1.992453640,0,0,0
2.008585240,0,0,1
2.010884800,0,0,0
2.027014740,0,0,1
2.029313840,0,0,0
2.045445740,0,0,1
2.047745360,0,0,0
2.063876060,0,0,1
2.066175700,0,0,0
2.082307100,0,0,1
2.084606700,0,0,0
2.100737180,0,0,1
2.103036660,0,0,0
2.119167840,0,0,1
2.121467500,0,0,0
2.137597440,0,0,1
2.139897020,0,0,0
2.156027600,0,0,1
2.158326860,0,0,0
2.174458980,0,0,1
2.176758760,0,0,0
2.192889020,0,0,1
2.195188220,0,0,0
2.211319840,0,0,1
2.213619160,0,0,0
2.229750660,0,0,1
2.232050080,0,0,0
2.234675520,1,0,0
2.235457400,1,1,0
2.235460460,1,0,0
2.243685840,0,0,0
2.248180660,0,0,1
2.250480160,0,0,0
2.266611940,0,0,1
2.268911280,0,0,0
2.285041540,0,0,1
2.287340580,0,0,0
2.303472940,0,0,1
2.305772600,0,0,0
2.321902780,0,0,1
2.324202040,0,0,0
2.340334460,0,0,1
2.342633660,0,0,0
2.358763640,0,0,1
2.361063240,0,0,0
2.377193380,0,0,1
2.379493020,0,0,0
2.395625620,0,0,1
2.397924960,0,0,0
2.414055100,0,0,1
2.416353960,0,0,0
2.432484900,0,0,1
2.434784020,0,0,0
2.450914580,0,0,1
2.453213580,0,0,0
2.469342760,0,0,1
2.471642200,0,0,0
2.487774820,0,0,1
2.490074440,0,0,0
2.506205140,0,0,1
2.508504740,0,0,0
2.524636520,0,0,1
2.526935540,0,0,0
2.543065340,0,0,1
2.545364720,0,0,0
2.561495760,0,0,1
2.563795080,0,0,0
2.579927180,0,0,1
2.582226320,0,0,0
2.598357220,0,0,1
2.600656940,0,0,0
2.616788740,0,0,1
2.619088440,0,0,0
2.635220240,0,0,1
2.637519700,0,0,0
2.653651220,0,0,1
2.655950980,0,0,0
2.672082880,0,0,1
2.674382420,0,0,0
2.690513040,0,0,1
2.692812120,0,0,0
2.708943360,0,0,1
2.711242620,0,0,0
2.727372620,0,0,1
2.729672140,0,0,0
2.745804320,0,0,1
2.748103780,0,0,0
2.764234920,0,0,1
2.766534460,0,0,0
2.782666740,0,0,1
2.784966520,0,0,0
2.801098520,0,0,1
2.803398220,0,0,0
2.819530760,0,0,1
2.821830140,0,0,0
2.837962880,0,0,1
2.840262140,0,0,0
2.856393680,0,0,1
2.858692960,0,0,0
2.874825120,0,0,1
2.877124500,0,0,0
2.893257380,0,0,1
2.895557240,0,0,0
2.911691000,0,0,1
2.913990360,0,0,0
2.930121560,0,0,1
2.930580700,0,0,0
2.948554100,0,0,1
2.949013100,0,0,0
2.966985840,0,0,1
2.967445000,0,0,0
2.985416840,0,0,1
2.985875940,0,0,0
3.003847040,0,0,1
3.004306140,0,0,0
3.022278640,0,0,1
3.022737760,0,0,0
3.040710540,0,0,1
3.041169660,0,0,0
3.059141220,0,0,1
3.059600360,0,0,0
3.077572040,0,0,1
3.078031100,0,0,0
3.096000920,0,0,1
3.096460040,0,0,0
3.114432460,0,0,1
3.114891580,0,0,0
3.132861980,0,0,1
3.133321080,0,0,0
3.151292220,0,0,1
3.151751260,0,0,0
3.169722980,0,0,1
3.170182080,0,0,0
3.188153200,0,0,1
3.188612200,0,0,0
3.206582420,0,0,1
3.207041560,0,0,0
3.225011800,0,0,1
3.225470920,0,0,0
3.243441500,0,0,1
3.243900560,0,0,0
3.261870960,0,0,1
3.262330080,0,0,0
3.280301280,0,0,1
3.280760260,0,0,0
3.298729900,0,0,1
3.299188900,0,0,0
3.317159160,0,0,1
3.317618300,0,0,0
3.335588980,0,0,1
3.336048000,0,0,0
3.354019820,0,0,1
3.354478900,0,0,0
3.372449820,0,0,1
3.372908820,0,0,0
3.390879600,0,0,1
3.391338720,0,0,0
3.409311000,0,0,1
3.409770100,0,0,0
3.427741740,0,0,1
3.428200740,0,0,0
3.446170740,0,0,1
3.446629840,0,0,0
3.464600220,0,0,1
3.465059240,0,0,0
3.483029660,0,0,1
3.483488640,0,0,0
3.501457840,0,0,1
3.501916800,0,0,0
3.519886980,0,0,1
3.520346000,0,0,0
3.538316960,0,0,1
3.538775960,0,0,0
3.556748620,0,0,1
3.557207760,0,0,0
3.575177900,0,0,1
3.575637020,0,0,0
3.593609440,0,0,1
3.594068580,0,0,0
3.612040260,0,0,1
3.612499340,0,0,0
3.630469900,0,0,1
3.630928900,0,0,0
3.648901140,0,0,1
3.649360260,0,0,0
3.667332920,0,0,1
3.667792040,0,0,0
3.685763600,0,0,1
3.686222600,0,0,0
3.704194000,0,0,1
3.704652980,0,0,0
3.722624780,0,0,1
3.723083900,0,0,0
3.741056020,0,0,1
3.741515060,0,0,0
3.759486440,0,0,1
3.759945560,0,0,0
3.777916740,0,0,1
3.778375800,0,0,0
3.796347040,0,0,1
3.796806100,0,0,0
3.814778460,0,0,1
3.815237480,0,0,0
3.833207440,0,0,1
3.833666540,0,0,0
3.851638420,0,0,1
3.852097540,0,0,0
3.870069380,0,0,1
3.870528380,0,0,0
3.888498100,0,0,1
3.888957120,0,0,0
3.906930100,0,0,1
3.907389220,0,0,0
3.925361340,0,0,1
3.927660720,0,0,0
3.943792340,0,0,1
3.946091720,0,0,0
3.962223760,0,0,1
3.964523520,0,0,0
3.980656360,0,0,1
3.982955800,0,0,0
3.999085720,0,0,1
4.001385340,0,0,0
4.017517800,0,0,1
4.019817500,0,0,0
4.035949260,0,0,1
4.038248620,0,0,0
4.054379520,0,0,1
4.056678780,0,0,0
4.072809780,0,0,1
4.075109420,0,0,0
4.091240040,0,0,1
4.093539200,0,0,0
4.109671220,0,0,1
4.111970500,0,0,0
4.128102480,0,0,1
4.130401940,0,0,0
4.146534320,0,0,1
4.148833760,0,0,0
4.164965720,0,0,1
4.167264880,0,0,0
4.183395760,0,0,1
4.185694860,0,0,0
4.201826420,0,0,1
4.204126140,0,0,0
4.220258240,0,0,1
4.222557960,0,0,0
4.238689480,0,0,1
4.240988880,0,0,0
4.257118860,0,0,1
4.259417960,0,0,0
4.275547140,0,0,1
4.277846380,0,0,0
4.293978100,0,0,1
4.296277660,0,0,0
4.312408460,0,0,1
4.314707540,0,0,0
4.330839140,0,0,1
4.333138400,0,0,0
4.349268040,0,0,1
4.351567400,0,0,0
4.367697900,0,0,1
4.369997540,0,0,0
4.386126880,0,0,1
4.388426520,0,0,0
4.404557380,0,0,1
4.406856440,0,0,0
4.422987300,0,0,1
4.425286540,0,0,0
4.441417540,0,0,1
4.443716720,0,0,0
4.459846460,0,0,1
4.462145460,0,0,0
4.478276560,0,0,1
4.480575780,0,0,0
4.496706040,0,0,1
4.499005440,0,0,0
4.515138440,0,0,1
4.517437520,0,0,0
4.533568580,0,0,1
4.535867620,0,0,0
4.552000560,0,0,1
4.554300180,0,0,0
4.570432140,0,0,1
4.572731120,0,0,0
4.588861900,0,0,1
4.591161700,0,0,0
4.607294500,0,0,1
4.609593980,0,0,0
4.625726520,0,0,1
4.628026000,0,0,0
4.644157940,0,0,1
4.646457580,0,0,0
4.662589720,0,0,1
4.664888860,0,0,0
4.681021780,0,0,1
4.683321080,0,0,0
4.699450860,0,0,1
4.701750540,0,0,0
4.717882580,0,0,1
4.720181580,0,0,0
4.736312720,0,0,1
4.738612180,0,0,0
4.754741900,0,0,1
4.757041520,0,0,0
4.773170820,0,0,1
4.775469780,0,0,0
4.791599540,0,0,1
4.793899120,0,0,0
4.810030300,0,0,1
4.812329480,0,0,0
4.828460920,0,0,1
4.830760560,0,0,0
4.846892100,0,0,1
4.849191660,0,0,0
4.865321740,0,0,1
4.867621220,0,0,0
4.883750980,0,0,1
4.886050580,0,0,0
4.902179420,0,0,1
4.904479040,0,0,0
4.920610900,0,0,1
4.921070020,0,0,0
4.939041840,0,0,1
4.939500960,0,0,0
4.957471960,0,0,1
4.957931060,0,0,0
4.975901940,0,0,1
4.976361100,0,0,0
4.994332820,0,0,1
4.994791940,0,0,0
5.012763520,0,0,1
5.013222500,0,0,0
5.031193080,0,0,1
5.031652200,0,0,0
5.049622780,0,0,1
5.050081780,0,0,0
5.068050960,0,0,1
5.068510080,0,0,0
5.086480140,0,0,1
5.086939120,0,0,0
5.104910880,0,0,1
5.105369980,0,0,0
5.123342780,0,0,1
5.123801880,0,0,0
5.141774140,0,0,1
5.142233180,0,0,0
5.160206200,0,0,1
5.160665360,0,0,0
5.178637860,0,0,1
5.179097000,0,0,0
5.197070300,0,0,1
5.197529320,0,0,0
5.215499560,0,0,1
5.215958580,0,0,0
5.233928920,0,0,1
5.234388060,0,0,0
5.252359880,0,0,1
5.252819020,0,0,0
5.270791840,0,0,1
5.271250860,0,0,0
5.289222960,0,0,1
5.289682080,0,0,0
5.307653960,0,0,1
5.308113100,0,0,0
5.326085020,0,0,1
5.326544140,0,0,0
5.344515620,0,0,1
5.344974660,0,0,0
5.362945340,0,0,1
5.363404320,0,0,0
5.381374300,0,0,1
5.381833300,0,0,0
5.399804880,0,0,1
5.400263960,0,0,0
5.418235240,0,0,1
5.418694240,0,0,0
5.436665680,0,0,1
5.437124840,0,0,0
5.455096780,0,0,1
5.455555800,0,0,0
5.473526940,0,0,1
5.473986060,0,0,0
5.491957820,0,0,1
5.492416960,0,0,0
5.510390000,0,0,1
5.510849080,0,0,0
5.528820680,0,0,1
5.529279820,0,0,0
5.547251920,0,0,1
5.547711060,0,0,0
5.565682680,0,0,1
5.566141700,0,0,0
5.584113120,0,0,1
5.584572160,0,0,0
5.602544760,0,0,1
5.603003900,0,0,0
5.620976700,0,0,1
5.621435720,0,0,0
5.639409440,0,0,1
5.639868600,0,0,0
5.657841160,0,0,1
5.658300280,0,0,0
5.676273380,0,0,1
5.676732400,0,0,0
5.694703120,0,0,1
5.695162140,0,0,0
5.713134000,0,0,1
5.713593120,0,0,0
5.731566060,0,0,1
5.732025200,0,0,0
5.749996800,0,0,1
5.750455920,0,0,0
5.768426400,0,0,1
5.768885420,0,0,0
5.786858300,0,0,1
5.787317440,0,0,0
5.805290240,0,0,1
5.805749420,0,0,0
5.823720480,0,0,1
5.824179620,0,0,0
5.842151100,0,0,1
5.842610240,0,0,0
5.860583280,0,0,1
5.861042440,0,0,0
5.879015100,0,0,1
5.879474220,0,0,0
5.897448500,0,0,1
5.897907640,0,0,0
5.915878600,0,0,1
5.916337720,0,0,0
5.934310680,0,0,1
5.936610340,0,0,0
5.952742500,0,0,1
5.955042220,0,0,0
5.971171360,0,0,1
5.973471040,0,0,0
5.989600760,0,0,1
5.991900320,0,0,0
6.008032140,0,0,1
6.010331900,0,0,0
6.026462740,0,0,1
6.028761840,0,0,0
6.044892740,0,0,1
6.047191920,0,0,0
6.063324280,0,0,1
6.065623920,0,0,0
6.081754580,0,0,1
6.084054440,0,0,0
6.100187180,0,0,1
6.102486640,0,0,0
6.118618460,0,0,1
6.120918240,0,0,0
6.137050260,0,0,1
6.139350000,0,0,0
6.155482140,0,0,1
6.157781520,0,0,0
6.173912720,0,0,1
6.176211980,0,0,0
6.192343000,0,0,1
6.194642640,0,0,0
6.210774620,0,0,1
6.213074040,0,0,0
6.229207360,0,0,1
6.231507080,0,0,0
6.247638600,0,0,1
6.249938360,0,0,0
6.266069660,0,0,1
6.268369080,0,0,0
6.284498880,0,0,1
6.286798280,0,0,0
6.302929940,0,0,1
6.305229280,0,0,0
6.321362520,0,0,1
6.323662100,0,0,0
6.339793340,0,0,1
6.342092680,0,0,0
6.358223940,0,0,1
6.360523480,0,0,0
6.376653640,0,0,1
6.378952860,0,0,0
6.395083700,0,0,1
6.397383400,0,0,0
6.413514860,0,0,1
6.415814300,0,0,0
6.431945640,0,0,1
6.434245120,0,0,0
6.450375900,0,0,1
6.452675080,0,0,0
6.468804780,0,0,1
6.471104340,0,0,0
6.487236460,0,0,1
6.489536120,0,0,0
6.505667720,0,0,1
6.507967480,0,0,0
6.524099000,0,0,1
6.526398540,0,0,0
6.542530220,0,0,1
6.544829840,0,0,0
6.560961260,0,0,1
6.563260620,0,0,0
6.579393080,0,0,1
6.581692920,0,0,0
6.597824660,0,0,1
6.600124260,0,0,0
6.616254980,0,0,1
6.618554760,0,0,0
6.634686520,0,0,1
6.636985800,0,0,0
6.653119040,0,0,1
6.655418780,0,0,0
6.671551000,0,0,1
6.673850820,0,0,0
6.689983080,0,0,1
6.692282480,0,0,0
6.708414720,0,0,1
6.710714240,0,0,0
6.726846020,0,0,1
6.729145420,0,0,0
6.745278900,0,0,1
6.747578140,0,0,0
6.763709480,0,0,1
6.766009140,0,0,0
6.782140960,0,0,1
6.784440840,0,0,0
6.800572620,0,0,1
6.802872440,0,0,0
6.819004020,0,0,1
6.821303500,0,0,0
6.837435700,0,0,1
6.839735400,0,0,0
6.855866720,0,0,1
6.858166180,0,0,0
6.874297740,0,0,1
6.876597340,0,0,0
6.892729420,0,0,1
6.895028860,0,0,0
6.911160060,0,0,1
6.913459740,0,0,0
6.929591340,0,0,1
6.930973140,0,0,0
6.948023180,0,0,1
6.949404720,0,0,0
6.966454780,0,0,1
6.967836380,0,0,0
6.984885200,0,0,1
6.986267000,0,0,0
7.003318620,0,0,1
7.004699980,0,0,0
7.021747700,0,0,1
7.023129120,0,0,0
7.040179380,0,0,1
7.041560980,0,0,0
7.058611100,0,0,1
7.059992440,0,0,0
7.077042500,0,0,1
7.078424300,0,0,0
7.095474460,0,0,1
7.096855840,0,0,0
7.113905500,0,0,1
7.115287240,0,0,0
7.132336360,0,0,1
7.133717720,0,0,0
7.150767320,0,0,1
7.152148660,0,0,0
7.169200040,0,0,1
7.170581680,0,0,0
7.187631040,0,0,1
7.189012760,0,0,0
7.206062180,0,0,1
7.207443660,0,0,0
7.224493760,0,0,1
7.225875100,0,0,0
7.242925520,0,0,1
7.244307240,0,0,0
7.261357880,0,0,1
7.262739580,0,0,0
7.279787020,0,0,1
7.281168760,0,0,0
7.298218440,0,0,1
7.299600200,0,0,0
7.316650040,0,0,1
7.318031380,0,0,0
7.335080340,0,0,1
7.336461960,0,0,0
7.353510920,0,0,1
7.354892600,0,0,0
7.371943060,0,0,1
7.373324720,0,0,0
7.390373860,0,0,1
7.391755220,0,0,0
7.408802600,0,0,1
7.410183840,0,0,0
7.427231860,0,0,1
7.428613160,0,0,0
7.445662140,0,0,1
7.447043600,0,0,0
7.464094880,0,0,1
7.465476580,0,0,0
7.482526420,0,0,1
7.483907680,0,0,0
7.500956400,0,0,1
7.502337660,0,0,0
7.519386780,0,0,1
7.520768440,0,0,0
7.537817980,0,0,1
7.539199660,0,0,0
7.556248820,0,0,1
7.557630360,0,0,0
7.574679840,0,0,1
7.576061200,0,0,0
7.593109480,0,0,1
7.594490800,0,0,0
7.611540160,0,0,1
7.612921820,0,0,0
7.629971680,0,0,1
7.631353040,0,0,0
7.648402940,0,0,1
7.649784400,0,0,0
7.666833820,0,0,1
7.668215340,0,0,0
7.685264720,0,0,1
7.686645980,0,0,0
7.703693240,0,0,1
7.705074860,0,0,0
7.722124100,0,0,1
7.723505360,0,0,0
7.740553980,0,0,1
7.741935640,0,0,0
7.758985020,0,0,1
7.760366340,0,0,0
7.777414020,0,0,1
7.778795580,0,0,0
7.795842400,0,0,1
7.797223760,0,0,0
7.814273760,0,0,1
7.815655040,0,0,0
7.832704240,0,0,1
7.834085760,0,0,0
7.851133300,0,0,1
7.852514700,0,0,0
7.869565160,0,0,1
7.870946780,0,0,0
7.887996700,0,0,1
7.889378360,0,0,0
7.906428240,0,0,1
7.907809560,0,0,0
7.924858780,0,0,1
7.926240180,0,0,0
7.943290240,0,0,1
7.944671900,0,0,0
7.961721940,0,0,1
7.963103580,0,0,0
7.980153320,0,0,1
7.981534580,0,0,0
7.998583960,0,0,1
7.999965280,0,0,0
8.017015120,0,0,1
8.018396760,0,0,0
8.035446500,0,0,1
8.036828040,0,0,0
8.053876860,0,0,1
8.055258420,0,0,0
8.072308140,0,0,1
8.073689800,0,0,0
8.090738860,0,0,1
8.092120520,0,0,0
8.109168680,0,0,1
8.110550160,0,0,0
8.127600360,0,0,1
8.128982000,0,0,0
8.146031840,0,0,1
8.147413120,0,0,0
8.164463680,0,0,1
8.165845320,0,0,0
8.182894060,0,0,1
8.184275640,0,0,0
8.201324000,0,0,1
8.202705660,0,0,0
8.219755060,0,0,1
8.221136720,0,0,0
8.238187040,0,0,1
8.239568560,0,0,0
8.256617580,0,0,1
8.257999200,0,0,0
8.275048720,0,0,1
8.276430380,0,0,0
8.293481500,0,0,1
8.294863100,0,0,0
8.311910700,0,0,1
8.313292060,0,0,0
8.330340820,0,0,1
8.331722340,0,0,0
8.348771800,0,0,1
8.350153060,0,0,0
8.367200480,0,0,1
8.368581720,0,0,0
8.385630600,0,0,1
8.387012280,0,0,0
8.404061460,0,0,1
8.405443080,0,0,0
8.422492500,0,0,1
8.423873740,0,0,0
8.440924300,0,0,1
8.442305980,0,0,0
8.459354880,0,0,1
8.460736140,0,0,0
8.477785460,0,0,1
8.479167100,0,0,0
8.496215700,0,0,1
8.497597020,0,0,0
8.514645000,0,0,1
8.516026300,0,0,0
8.533075380,0,0,1
8.534457080,0,0,0
8.551508260,0,0,1
8.552889900,0,0,0
8.569938940,0,0,1
8.571320160,0,0,0
8.588368880,0,0,1
8.589750260,0,0,0
8.591301240,1,0,0
8.591965580,1,1,0
8.591968700,1,0,0
8.600311260,0,0,0
8.606799120,0,0,1
8.608180380,0,0,0
8.625228960,0,0,1
8.626610480,0,0,0
8.643659860,0,0,1
8.645041420,0,0,0
8.662089400,0,0,1
8.663470940,0,0,0
8.680518720,0,0,1
8.681900320,0,0,0
8.698948640,0,0,1
8.700330320,0,0,0
8.717379080,0,0,1
8.718760680,0,0,0
8.735808240,0,0,1
8.737189460,0,0,0
8.754238720,0,0,1
8.755620280,0,0,0
8.772669140,0,0,1
8.774050360,0,0,0
8.791097780,0,0,1
8.792479360,0,0,0
8.809529280,0,0,1
8.810910700,0,0,0
8.827958780,0,0,1
8.829340420,0,0,0
8.846391000,0,0,1
8.847772340,0,0,0
8.864820780,0,0,1
8.866202060,0,0,0
8.883251140,0,0,1
8.884632800,0,0,0
8.901681060,0,0,1
8.903062660,0,0,0
8.920112240,0,0,1
8.921493880,0,0,0
8.938543100,0,0,1
8.939924380,0,0,0
8.956972560,0,0,1
8.958353840,0,0,0
8.975401520,0,0,1
8.976783140,0,0,0
8.993832680,0,0,1
8.995214020,0,0,0
9.012263080,0,0,1
9.013644620,0,0,0
9.030691240,0,0,1
9.032072500,0,0,0
9.049120940,0,0,1
9.050502480,0,0,0
9.067551860,0,0,1
9.068933120,0,0,0
9.085981720,0,0,1
9.087363360,0,0,0
9.104410400,0,0,1
9.105791980,0,0,0
9.122840220,0,0,1
9.124221820,0,0,0
9.141271980,0,0,1
9.142653620,0,0,0
9.159703740,0,0,1
9.161085360,0,0,0
9.178134100,0,0,1
9.179515380,0,0,0
9.196564480,0,0,1
9.197945940,0,0,0
9.214993400,0,0,1
9.216374780,0,0,0
9.233425180,0,0,1
9.234806760,0,0,0
9.251855580,0,0,1
9.253237180,0,0,0
9.270286600,0,0,1
9.271667800,0,0,0
9.288718460,0,0,1
9.290100200,0,0,0
9.307147780,0,0,1
9.308529040,0,0,0
9.325578640,0,0,1
9.326959940,0,0,0
9.344010100,0,0,1
9.345391520,0,0,0
9.362440880,0,0,1
9.363822560,0,0,0
9.380872940,0,0,1
9.382254620,0,0,0
9.399304740,0,0,1
9.400686420,0,0,0
9.417737460,0,0,1
9.419118980,0,0,0
9.436169140,0,0,1
9.437550800,0,0,0
9.454600420,0,0,1
9.455981780,0,0,0
9.473031700,0,0,1
9.474413380,0,0,0
9.491463180,0,0,1
9.492844580,0,0,0
9.509891620,0,0,1
9.511272960,0,0,0
9.528321360,0,0,1
9.529702800,0,0,0
9.546752680,0,0,1
9.548133980,0,0,0
9.565182220,0,0,1
9.566563520,0,0,0
9.583611120,0,0,1
9.584992440,0,0,0
9.602040580,0,0,1
9.603421960,0,0,0
9.620470440,0,0,1
9.621851940,0,0,0
9.638902500,0,0,1
9.640283940,0,0,0
9.657332660,0,0,1
9.658714080,0,0,0
9.675763380,0,0,1
9.677144920,0,0,0
9.694194740,0,0,1
9.695576440,0,0,0
9.712625880,0,0,1
9.714007380,0,0,0
9.731055700,0,0,1
9.732437180,0,0,0
9.749485200,0,0,1
9.750866820,0,0,0
9.767916800,0,0,1
9.769298320,0,0,0
9.786348460,0,0,1
9.787730140,0,0,0
9.804781320,0,0,1
9.806163000,0,0,0
9.823213340,0,0,1
9.824594980,0,0,0
9.841645020,0,0,1
9.843026680,0,0,0
9.860075680,0,0,1
9.861457200,0,0,0
9.878505380,0,0,1
9.879886680,0,0,0
9.896936120,0,0,1
9.898317660,0,0,0
9.915365580,0,0,1
9.916746920,0,0,0
9.933795400,0,0,1
9.935176940,0,0,0
9.952227420,0,0,1
9.953608660,0,0,0
9.970657220,0,0,1
9.972038580,0,0,0
9.989087620,0,0,1
9.990469240,0,0,0
10.007519140,0,0,1
10.008900560,0,0,0
10.025948240,0,0,1
10.027329600,0,0,0
10.044378380,0,0,1
10.045760020,0,0,0
10.062808980,0,0,1
10.064190420,0,0,0
10.081238260,0,0,1
10.082619860,0,0,0
10.099669200,0,0,1
