Time [s],Channel 0,Channel 1,Channel 2
0.000000000,0,0,0
0.013616440,0,0,1
0.014997260,0,0,0
0.032040860,0,0,1
0.033421740,0,0,0
0.050466000,0,0,1
0.051847220,0,0,0
0.068890360,0,0,1
0.070271400,0,0,0
0.087315320,0,0,1
0.088696500,0,0,0
0.105740420,0,0,1
0.107121400,0,0,0
0.124164260,0,0,1
0.125545080,0,0,0
0.142588680,0,0,1
0.143969680,0,0,0
0.161012200,0,0,1
0.162393080,0,0,0
0.179436720,0,0,1
0.180817860,0,0,0
0.197862020,0,0,1
0.199243160,0,0,0
0.216288200,0,0,1
0.217669300,0,0,0
0.234712340,0,0,1
0.236093200,0,0,0
0.253136480,0,0,1
0.254517700,0,0,0
0.271560540,0,0,1
0.272941360,0,0,0
0.289984600,0,0,1
0.291365660,0,0,0
0.308408960,0,0,1
0.309790120,0,0,0
0.326835000,0,0,1
0.328216260,0,0,0
0.345259860,0,0,1
0.346640780,0,0,0
0.363683960,0,0,1
0.365064800,0,0,0
0.382108200,0,0,1
0.383489380,0,0,0
0.400534260,0,0,1
0.401915240,0,0,0
0.418958240,0,0,1
0.420339320,0,0,0
0.437382740,0,0,1
0.438763640,0,0,0
0.455808560,0,0,1
0.457189620,0,0,0
0.474233800,0,0,1
0.475614680,0,0,0
0.492658900,0,0,1
0.494040060,0,0,0
0.511083960,0,0,1
0.512465020,0,0,0
0.529507420,0,0,1
0.530888300,0,0,0
0.547932500,0,0,1
0.549313440,0,0,0
0.566357720,0,0,1
0.567738840,0,0,0
0.584784820,0,0,1
0.586166080,0,0,0
0.603209100,0,0,1
0.604589960,0,0,0
0.621634400,0,0,1
0.623015660,0,0,0
0.640060880,0,0,1
0.641441860,0,0,0
0.658485800,0,0,1
0.659867060,0,0,0
0.676911540,0,0,1
0.678292760,0,0,0
0.695337740,0,0,1
0.696719000,0,0,0
0.713763860,0,0,1
0.715145140,0,0,0
0.732189740,0,0,1
0.733570920,0,0,0
0.750614780,0,0,1
0.751995720,0,0,0
0.769041880,0,0,1
0.770423280,0,0,0
0.787467720,0,0,1
0.788848680,0,0,0
0.805892280,0,0,1
0.807273120,0,0,0
0.824316980,0,0,1
0.825698280,0,0,0
0.842743140,0,0,1
0.844124160,0,0,0
0.861170260,0,0,1
0.862551540,0,0,0
0.879594760,0,0,1
0.880976020,0,0,0
0.898019100,0,0,1
0.899400000,0,0,0
0.916444280,0,0,1
0.917825540,0,0,0
0.934871640,0,0,1
0.936252880,0,0,0
0.953296460,0,0,1
0.954677740,0,0,0
0.961673160,0,1,0
0.971722140,0,1,1
0.971747840,0,0,1
0.973103340,0,0,0
0.990147160,0,0,1
0.991528080,0,0,0
1.008572500,0,0,1
1.009953380,0,0,0
1.026997880,0,0,1
1.028379120,0,0,0
1.045424240,0,0,1
1.046805560,0,0,0
1.063850240,0,0,1
1.065231240,0,0,0
1.082276280,0,0,1
1.083657540,0,0,0
1.100703200,0,0,1
1.102084520,0,0,0
1.119128680,0,0,1
1.120509880,0,0,0
1.137553720,0,0,1
1.138934620,0,0,0
1.155978780,0,0,1
1.157359920,0,0,0
1.174405160,0,0,1
1.175786160,0,0,0
1.192830800,0,0,1
1.194211980,0,0,0
1.211257620,0,0,1
1.212638900,0,0,0
1.229683620,0,0,1
1.231064520,0,0,0
1.248108680,0,0,1
1.249489860,0,0,0
1.266535300,0,0,1
1.267916520,0,0,0
1.284960680,0,0,1
1.286341600,0,0,0
1.303386220,0,0,1
1.304767420,0,0,0
1.321810920,0,0,1
1.323191880,0,0,0
1.340237520,0,0,1
1.341618500,0,0,0
1.358662840,0,0,1
1.360044140,0,0,0
1.377088100,0,0,1
1.378469360,0,0,0
1.395514300,0,0,1
1.396895240,0,0,0
1.413939880,0,0,1
1.415321120,0,0,0
1.432364240,0,0,1
1.433745080,0,0,0
1.450787540,0,0,1
1.452168840,0,0,0
1.469212060,0,0,1
1.470592960,0,0,0
1.487636680,0,0,1
1.489017760,0,0,0
1.506061960,0,0,1
1.507443200,0,0,0
1.524485920,0,0,1
1.525866800,0,0,0
1.542909900,0,0,1
1.544291180,0,0,0
1.561335400,0,0,1
1.562716580,0,0,0
1.579760880,0,0,1
1.581142080,0,0,0
1.598187400,0,0,1
1.599568720,0,0,0
1.616613380,0,0,1
1.617994600,0,0,0
1.635038600,0,0,1
1.636419780,0,0,0
1.653465060,0,0,1
1.654846300,0,0,0
1.671889800,0,0,1
1.673270680,0,0,0
1.690315060,0,0,1
1.691696260,0,0,0
1.708740980,0,0,1
1.710122160,0,0,0
1.727166380,0,0,1
1.728547200,0,0,0
1.745590860,0,0,1
1.746971820,0,0,0
1.764015900,0,0,1
1.765397200,0,0,0
1.782442800,0,0,1
1.783823700,0,0,0
1.800867300,0,0,1
1.802248440,0,0,0
1.819290620,0,0,1
1.820671740,0,0,0
1.837717460,0,0,1
1.839098680,0,0,0
1.856142040,0,0,1
1.857523260,0,0,0
1.874568040,0,0,1
1.875949300,0,0,0
1.892994580,0,0,1
1.894375620,0,0,0
1.911418980,0,0,1
1.912800000,0,0,0
1.929843960,0,0,1
1.931225180,0,0,0
1.948270520,0,0,1
1.949651780,0,0,0
1.966694260,0,0,1
1.968075240,0,0,0
1.985120000,0,0,1
1.986500960,0,0,0
2.003544820,0,0,1
2.004926040,0,0,0
2.021970840,0,0,1
2.023352020,0,0,0
2.040397260,0,0,1
2.041778240,0,0,0
2.058822940,0,0,1
2.060204180,0,0,0
2.077249820,0,0,1
2.078631120,0,0,0
2.095676500,0,0,1
2.097057740,0,0,0
2.114102200,0,0,1
2.115483440,0,0,0
2.132526500,0,0,1
2.133907760,0,0,0
2.150953060,0,0,1
2.152334380,0,0,0
2.169379300,0,0,1
2.170760640,0,0,0
2.187806180,0,0,1
2.189187500,0,0,0
2.206232280,0,0,1
2.207613500,0,0,0
2.224658120,0,0,1
2.226039380,0,0,0
2.234818340,0,0,1
2.236199380,0,0,0
2.253243340,0,0,1
2.254624600,0,0,0
2.271670180,0,0,1
2.273051380,0,0,0
2.290096440,0,0,1
2.291477700,0,0,0
2.308520380,0,0,1
2.309901600,0,0,0
2.326946320,0,0,1
2.328327600,0,0,0
2.345373580,0,0,1
2.346754940,0,0,0
2.363799040,0,0,1
2.365180260,0,0,0
2.382226440,0,0,1
2.383607720,0,0,0
2.400650820,0,0,1
2.402031920,0,0,0
2.419077900,0,0,1
2.420458940,0,0,0
2.437503720,0,0,1
2.439802860,0,0,0
2.455930340,0,0,1
2.458229480,0,0,0
2.474357360,0,0,1
2.476656400,0,0,0
2.492784920,0,0,1
2.495083820,0,0,0
2.511211540,0,0,1
2.513510500,0,0,0
2.529637420,0,0,1
2.531936480,0,0,0
2.548064000,0,0,1
2.550363080,0,0,0
2.566489200,0,0,1
2.568788160,0,0,0
2.584915300,0,0,1
2.587214320,0,0,0
2.603340520,0,0,1
2.605639060,0,0,0
2.621765540,0,0,1
2.624064560,0,0,0
2.640191360,0,0,1
2.642490440,0,0,0
2.658617800,0,0,1
2.660916940,0,0,0
2.677044240,0,0,1
2.679343360,0,0,0
2.695471740,0,0,1
2.697770560,0,0,0
2.713896300,0,0,1
2.716194720,0,0,0
2.732322060,0,0,1
2.734621220,0,0,0
2.750747940,0,0,1
2.753046980,0,0,0
2.760504240,1,0,0
2.761113880,1,1,0
2.761116940,1,0,0
2.769174440,1,0,1
2.769515220,0,0,1
2.771473260,0,0,0
2.787600340,0,0,1
2.789899420,0,0,0
2.806025240,0,0,1
2.808323740,0,0,0
2.824450280,0,0,1
2.826749380,0,0,0
2.842877160,0,0,1
2.845175620,0,0,0
2.861301540,0,0,1
2.863600240,0,0,0
2.879728120,0,0,1
2.882026540,0,0,0
2.898153720,0,0,1
2.900452440,0,0,0
2.916579160,0,0,1
2.918877740,0,0,0
2.935005360,0,0,1
2.937304300,0,0,0
2.953431440,0,0,1
2.955729880,0,0,0
2.971856760,0,0,1
2.974155620,0,0,0
2.990282780,0,0,1
2.992581840,0,0,0
3.008708240,0,0,1
3.011007240,0,0,0
3.027134520,0,0,1
3.029433020,0,0,0
3.045561100,0,0,1
3.047859500,0,0,0
3.063984800,0,0,1
3.066283840,0,0,0
3.082410860,0,0,1
3.084709780,0,0,0
3.100837720,0,0,1
3.103136740,0,0,0
3.119263820,0,0,1
3.121562820,0,0,0
3.137688760,0,0,1
3.139987360,0,0,0
3.156114640,0,0,1
3.158413640,0,0,0
3.174538520,0,0,1
3.176837520,0,0,0
3.192963680,0,0,1
3.195262640,0,0,0
3.211390360,0,0,1
3.213689400,0,0,0
3.229817120,0,0,1
3.232115580,0,0,0
3.248242440,0,0,1
3.250541460,0,0,0
3.266669880,0,0,1
3.268968920,0,0,0
3.285096140,0,0,1
3.287395040,0,0,0
3.303520520,0,0,1
3.305819020,0,0,0
3.321946620,0,0,1
3.324245440,0,0,0
3.340372740,0,0,1
3.342671180,0,0,0
3.358798900,0,0,1
3.361097900,0,0,0
3.377224220,0,0,1
3.379523180,0,0,0
3.395651620,0,0,1
3.397950020,0,0,0
3.414076440,0,0,1
3.416375340,0,0,0
3.432500960,0,0,1
3.434799540,0,0,0
3.450926880,0,0,1
3.451385900,0,0,0
3.469354120,0,0,1
3.469813020,0,0,0
3.487780920,0,0,1
3.488239960,0,0,0
3.506205900,0,0,1
3.506664900,0,0,0
3.524632920,0,0,1
3.525091920,0,0,0
3.543059460,0,0,1
3.543518440,0,0,0
3.561485360,0,0,1
3.561944260,0,0,0
3.579909520,0,0,1
3.580368520,0,0,0
3.598332780,0,0,1
3.598791640,0,0,0
3.616757500,0,0,1
3.617216500,0,0,0
3.635185240,0,0,1
3.635644260,0,0,0
3.653611740,0,0,1
3.654070740,0,0,0
3.672036000,0,0,1
3.672494880,0,0,0
3.690460600,0,0,1
3.690919580,0,0,0
3.708884920,0,0,1
3.709343960,0,0,0
3.727311380,0,0,1
3.727770400,0,0,0
3.745736660,0,0,1
3.746195660,0,0,0
3.764162900,0,0,1
3.764621920,0,0,0
3.782588380,0,0,1
3.783047380,0,0,0
3.801012100,0,0,1
3.801471000,0,0,0
3.819438640,0,0,1
3.819897680,0,0,0
3.837864740,0,0,1
3.838323700,0,0,0
3.856290060,0,0,1
3.856748940,0,0,0
3.874715860,0,0,1
3.875174860,0,0,0
3.893142980,0,0,1
3.893601980,0,0,0
3.911569320,0,0,1
3.912028320,0,0,0
3.929995240,0,0,1
3.930454260,0,0,0
3.948421480,0,0,1
3.948880500,0,0,0
3.966847000,0,0,1
3.967305920,0,0,0
3.985272020,0,0,1
3.985730900,0,0,0
4.003697500,0,0,1
4.004156400,0,0,0
4.022122720,0,0,1
4.022581740,0,0,0
4.040549980,0,0,1
4.041008920,0,0,0
4.058975700,0,0,1
4.059434580,0,0,0
4.077401480,0,0,1
4.077860500,0,0,0
4.095827680,0,0,1
4.096286680,0,0,0
4.114253120,0,0,1
4.114712140,0,0,0
4.132679800,0,0,1
4.133138820,0,0,0
4.151105400,0,0,1
4.151564300,0,0,0
4.169531800,0,0,1
4.169990820,0,0,0
4.187958980,0,0,1
4.188417880,0,0,0
4.206385480,0,0,1
4.206844480,0,0,0
4.224811380,0,0,1
4.225270360,0,0,0
4.243237500,0,0,1
4.243696400,0,0,0
4.261662400,0,0,1
4.262121380,0,0,0
4.280089380,0,0,1
4.280548420,0,0,0
4.298514800,0,0,1
4.298973800,0,0,0
4.316942180,0,0,1
4.317401180,0,0,0
4.335369220,0,0,1
4.335828100,0,0,0
4.353794100,0,0,1
4.354252980,0,0,0
4.372220480,0,0,1
4.372679500,0,0,0
4.390646660,0,0,1
4.391105660,0,0,0
4.409074160,0,0,1
4.409533060,0,0,0
4.427500800,0,0,1
4.427959680,0,0,0
4.445927360,0,0,1
4.448226320,0,0,0
4.464352620,0,0,1
4.466651620,0,0,0
4.482779120,0,0,1
4.485078060,0,0,0
4.501206540,0,0,1
4.503505800,0,0,0
4.519632860,0,0,1
4.521932040,0,0,0
4.538060360,0,0,1
4.540359360,0,0,0
4.556484860,0,0,1
4.558783640,0,0,0
4.574912480,0,0,1
4.577211500,0,0,0
4.593339240,0,0,1
4.595638040,0,0,0
4.611765840,0,0,1
4.614064900,0,0,0
4.630192000,0,0,1
4.632490500,0,0,0
4.648617440,0,0,1
4.650916240,0,0,0
4.667042840,0,0,1
4.669341860,0,0,0
4.685468620,0,0,1
4.687767540,0,0,0
4.703895840,0,0,1
4.706194940,0,0,0
4.722323320,0,0,1
4.724622360,0,0,0
4.740750140,0,0,1
4.743049280,0,0,0
4.759177320,0,0,1
4.761476280,0,0,0
4.777604680,0,0,1
4.779903360,0,0,0
4.796031860,0,0,1
4.798330440,0,0,0
4.814458380,0,0,1
4.816757740,0,0,0
4.832886040,0,0,1
4.835184940,0,0,0
4.851312580,0,0,1
4.853611540,0,0,0
4.869739040,0,0,1
4.872037580,0,0,0
4.888164320,0,0,1
4.890462980,0,0,0
4.906591000,0,0,1
4.908890200,0,0,0
4.925018140,0,0,1
4.927317280,0,0,0
4.943443580,0,0,1
4.945742720,0,0,0
4.961870540,0,0,1
4.964169660,0,0,0
4.980295120,0,0,1
4.982593780,0,0,0
4.998720520,0,0,1
5.001019660,0,0,0
5.017148720,0,0,1
5.019447460,0,0,0
5.035576540,0,0,1
5.037875420,0,0,0
5.054002920,0,0,1
5.056301520,0,0,0
5.072427400,0,0,1
5.074726320,0,0,0
5.090854080,0,0,1
5.093153240,0,0,0
5.109280680,0,0,1
5.111579220,0,0,0
5.127707420,0,0,1
5.130006600,0,0,0
5.146132780,0,0,1
5.148431720,0,0,0
5.164559260,0,0,1
5.166857800,0,0,0
5.182984860,0,0,1
5.185283760,0,0,0
5.201412360,0,0,1
5.203711180,0,0,0
5.219838060,0,0,1
5.222136660,0,0,0
5.238262840,0,0,1
5.240561700,0,0,0
5.256689340,0,0,1
5.258988060,0,0,0
5.275115120,0,0,1
5.277413880,0,0,0
5.293541720,0,0,1
5.295840300,0,0,0
5.311967200,0,0,1
5.314266280,0,0,0
5.330392700,0,0,1
5.332691640,0,0,0
5.348818600,0,0,1
5.351117720,0,0,0
5.367244040,0,0,1
5.369542480,0,0,0
5.385668540,0,0,1
5.387966940,0,0,0
5.404093460,0,0,1
5.406392240,0,0,0
5.422521340,0,0,1
5.424820040,0,0,0
5.440947460,0,0,1
5.441406400,0,0,0
5.459373040,0,0,1
5.459832060,0,0,0
5.477798120,0,0,1
5.478257060,0,0,0
5.496225920,0,0,1
5.496684900,0,0,0
5.514652280,0,0,1
5.515111320,0,0,0
5.533080180,0,0,1
5.533539220,0,0,0
5.551507400,0,0,1
5.551966420,0,0,0
5.569935820,0,0,1
5.570394860,0,0,0
5.588364600,0,0,1
5.588823620,0,0,0
5.606790220,0,0,1
5.607249220,0,0,0
5.625215280,0,0,1
5.625674320,0,0,0
5.643642920,0,0,1
5.644101960,0,0,0
5.662070480,0,0,1
5.662529500,0,0,0
5.680497680,0,0,1
5.680956600,0,0,0
5.698924960,0,0,1
5.699383860,0,0,0
5.717349920,0,0,1
5.717808840,0,0,0
5.735777680,0,0,1
5.736236700,0,0,0
5.754204560,0,0,1
5.754663600,0,0,0
5.772631700,0,0,1
5.773090600,0,0,0
5.791058040,0,0,1
5.791517000,0,0,0
5.809485580,0,0,1
5.809944640,0,0,0
5.827912580,0,0,1
5.828371500,0,0,0
5.846339200,0,0,1
5.846798220,0,0,0
5.864766880,0,0,1
5.865225920,0,0,0
5.883195240,0,0,1
5.883654300,0,0,0
5.901622480,0,0,1
5.902081460,0,0,0
5.920050800,0,0,1
5.920509760,0,0,0
5.938479160,0,0,1
5.938938200,0,0,0
5.956907900,0,0,1
5.957366900,0,0,0
5.975335960,0,0,1
5.975794880,0,0,0
5.993762580,0,0,1
5.994221600,0,0,0
6.012190740,0,0,1
6.012649760,0,0,0
6.030618440,0,0,1
6.031077300,0,0,0
6.049044760,0,0,1
6.049503700,0,0,0
6.067472700,0,0,1
6.067931660,0,0,0
6.085898900,0,0,1
6.086357820,0,0,0
6.104325300,0,0,1
6.104784240,0,0,0
6.122750480,0,0,1
6.123209460,0,0,0
6.141177620,0,0,1
6.141636540,0,0,0
6.159606180,0,0,1
6.160065200,0,0,0
6.178033840,0,0,1
6.178492760,0,0,0
6.196461700,0,0,1
6.196920720,0,0,0
6.214889080,0,0,1
6.215348100,0,0,0
6.233315040,0,0,1
6.233774040,0,0,0
6.251740880,0,0,1
6.252199900,0,0,0
6.270167880,0,0,1
6.270626780,0,0,0
6.288594020,0,0,1
6.289052960,0,0,0
6.307019540,0,0,1
6.307478460,0,0,0
6.325445680,0,0,1
6.325904720,0,0,0
6.343872040,0,0,1
6.344330940,0,0,0
6.362298500,0,0,1
6.362757560,0,0,0
6.380725100,0,0,1
6.381184140,0,0,0
6.399152080,0,0,1
6.399611040,0,0,0
6.417579800,0,0,1
6.418038720,0,0,0
6.436005080,0,0,1
6.436464100,0,0,0
6.454431740,0,0,1
6.456730820,0,0,0
6.472859920,0,0,1
6.475158940,0,0,0
6.491286840,0,0,1
6.493585800,0,0,0
6.509713460,0,0,1
6.512012640,0,0,0
6.528142000,0,0,1
6.530441220,0,0,0
6.546570360,0,0,1
6.548869500,0,0,0
6.564998600,0,0,1
6.567297200,0,0,0
6.583424200,0,0,1
6.585722940,0,0,0
6.601849900,0,0,1
6.604148380,0,0,0
6.620275080,0,0,1
6.622574280,0,0,0
6.638702380,0,0,1
6.641001600,0,0,0
6.657129680,0,0,1
6.659428580,0,0,0
6.675556320,0,0,1
6.677855500,0,0,0
6.693982720,0,0,1
6.696281640,0,0,0
6.712410040,0,0,1
6.714709200,0,0,0
6.730837200,0,0,1
6.733135820,0,0,0
6.749264680,0,0,1
6.751563420,0,0,0
6.767691880,0,0,1
6.769990880,0,0,0
6.786119720,0,0,1
6.788418380,0,0,0
6.804547160,0,0,1
6.806846340,0,0,0
6.822973220,0,0,1
6.825272380,0,0,0
6.841399080,0,0,1
6.843697780,0,0,0
6.859825680,0,0,1
6.862124360,0,0,0
6.878251560,0,0,1
6.880550020,0,0,0
6.896677720,0,0,1
6.898976520,0,0,0
6.915103900,0,0,1
6.917402740,0,0,0
6.933530240,0,0,1
6.935829380,0,0,0
6.951956440,0,0,1
6.954255620,0,0,0
6.970382840,0,0,1
6.972681500,0,0,0
6.988810080,0,0,1
6.991109360,0,0,0
7.007237760,0,0,1
7.009536600,0,0,0
7.025664140,0,0,1
7.027962740,0,0,0
7.044089960,0,0,1
7.046388520,0,0,0
7.062517720,0,0,1
7.064816460,0,0,0
7.080944000,0,0,1
7.083243120,0,0,0
7.099371460,0,0,1
7.101670640,0,0,0
7.117798580,0,0,1
7.120097680,0,0,0
7.136225880,0,0,1
7.138525160,0,0,0
7.154652560,0,0,1
7.156951740,0,0,0
7.173081340,0,0,1
7.175380620,0,0,0
7.191509300,0,0,1
7.193808180,0,0,0
7.209935600,0,0,1
7.212234240,0,0,0
7.228361360,0,0,1
7.230660280,0,0,0
7.246787500,0,0,1
7.249086000,0,0,0
7.265213220,0,0,1
7.267511840,0,0,0
7.283638520,0,0,1
7.285937380,0,0,0
7.302064380,0,0,1
7.304363520,0,0,0
7.320491740,0,0,1
7.322790780,0,0,0
7.338918920,0,0,1
7.341217560,0,0,0
7.357345280,0,0,1
7.359644380,0,0,0
7.375772720,0,0,1
7.378071540,0,0,0
7.394198860,0,0,1
7.396498060,0,0,0
7.412625920,0,0,1
7.414924780,0,0,0
7.431052440,0,0,1
7.433351040,0,0,0
7.449478980,0,0,1
7.450860300,0,0,0
7.467905100,0,0,1
7.469286420,0,0,0
7.486332780,0,0,1
7.487713960,0,0,0
7.504758180,0,0,1
7.506139420,0,0,0
7.523184920,0,0,1
7.524566100,0,0,0
7.541612720,0,0,1
7.542994000,0,0,0
7.560040120,0,0,1
7.561421120,0,0,0
7.578466560,0,0,1
7.579847800,0,0,0
7.596894780,0,0,1
7.598276160,0,0,0
7.615321220,0,0,1
7.616702500,0,0,0
7.633747080,0,0,1
7.635128020,0,0,0
7.652174200,0,0,1
7.653555580,0,0,0
7.670601680,0,0,1
7.671982900,0,0,0
7.689027820,0,0,1
7.690409180,0,0,0
7.707455500,0,0,1
7.708836800,0,0,0
7.725882980,0,0,1
7.727264360,0,0,0
7.744308420,0,0,1
7.745689400,0,0,0
7.762733720,0,0,1
7.764114960,0,0,0
7.781160220,0,0,1
7.782541240,0,0,0
7.799587700,0,0,1
7.800968640,0,0,0
7.818013340,0,0,1
7.819394340,0,0,0
7.836439780,0,0,1
7.837821100,0,0,0
7.854866000,0,0,1
7.856247040,0,0,0
7.873293240,0,0,1
7.874674700,0,0,0
7.891721040,0,0,1
7.893102440,0,0,0
7.910149600,0,0,1
7.911530620,0,0,0
7.928575520,0,0,1
7.929956560,0,0,0
7.947001920,0,0,1
7.948383300,0,0,0
7.965429900,0,0,1
7.966810960,0,0,0
7.983858420,0,0,1
7.985239800,0,0,0
8.002287000,0,0,1
8.003668320,0,0,0
8.020713320,0,0,1
8.022094400,0,0,0
8.039138300,0,0,1
8.040519400,0,0,0
8.057564580,0,0,1
8.058945920,0,0,0
8.075991140,0,0,1
8.077372160,0,0,0
8.094418960,0,0,1
8.095800340,0,0,0
8.112845920,0,0,1
8.114227000,0,0,0
8.131272080,0,0,1
8.132653280,0,0,0
8.149697920,0,0,1
8.151079200,0,0,0
8.168125820,0,0,1
8.169506800,0,0,0
8.186553380,0,0,1
8.187934740,0,0,0
8.204981740,0,0,1
8.206362960,0,0,0
8.223409680,0,0,1
8.224791040,0,0,0
8.241837540,0,0,1
8.243218720,0,0,0
8.260264740,0,0,1
8.261646040,0,0,0
8.278691300,0,0,1
8.280072360,0,0,0
8.297118300,0,0,1
8.298499440,0,0,0
8.315545620,0,0,1
8.316926980,0,0,0
8.333971820,0,0,1
8.335352760,0,0,0
8.352398440,0,0,1
8.353779420,0,0,0
8.370824560,0,0,1
8.372205840,0,0,0
8.389251780,0,0,1
8.390632720,0,0,0
8.407678560,0,0,1
8.409059640,0,0,0
8.426104920,0,0,1
8.427486260,0,0,0
8.444531240,0,0,1
8.445912460,0,0,0
8.462958540,0,0,1
8.464339580,0,0,0
8.481385240,0,0,1
8.482766700,0,0,0
8.499813460,0,0,1
8.501194500,0,0,0
8.518242560,0,0,1
8.519623980,0,0,0
8.536671020,0,0,1
8.538052440,0,0,0
8.555099520,0,0,1
8.556480820,0,0,0
8.573527300,0,0,1
8.574908640,0,0,0
8.591952820,0,0,1
8.593334180,0,0,0
8.610378800,0,0,1
8.611759740,0,0,0
8.628804840,0,0,1
8.630185860,0,0,0
8.647231100,0,0,1
8.648612080,0,0,0
8.665656680,0,0,1
8.667037960,0,0,0
8.684084260,0,0,1
8.685465520,0,0,0
8.702512140,0,0,1
8.703893240,0,0,0
8.720938160,0,0,1
8.722319120,0,0,0
8.739363560,0,0,1
8.740744840,0,0,0
8.757790420,0,0,1
8.759171560,0,0,0
8.776217740,0,0,1
8.777599020,0,0,0
8.794644740,0,0,1
8.796026120,0,0,0
8.813072060,0,0,1
8.814453460,0,0,0
8.831499840,0,0,1
8.832880960,0,0,0
8.849926720,0,0,1
8.851307840,0,0,0
8.868354180,0,0,1
8.869735340,0,0,0
8.886778600,0,0,1
8.888159640,0,0,0
8.905203240,0,0,1
8.906584440,0,0,0
8.923631320,0,0,1
8.925012620,0,0,0
8.942057880,0,0,1
8.943438920,0,0,0
8.960485400,0,0,1
8.961866560,0,0,0
8.978912860,0,0,1
8.980294060,0,0,0
8.997338600,0,0,1
8.998719940,0,0,0
9.015765620,0,0,1
9.017147040,0,0,0
9.034192260,0,0,1
9.035573660,0,0,0
9.052617640,0,0,1
9.053999020,0,0,0
9.071044400,0,0,1
9.072425800,0,0,0
9.089472040,0,0,1
9.090853100,0,0,0
9.107899620,0,0,1
9.109280980,0,0,0
9.117289480,1,0,0
9.117622560,1,1,0
9.117626100,1,0,0
9.126300420,0,0,0
9.126327360,0,0,1
9.127708500,0,0,0
9.144754540,0,0,1
9.146135900,0,0,0
9.163182020,0,0,1
9.164563400,0,0,0
9.181609380,0,0,1
9.182990740,0,0,0
9.200037540,0,0,1
9.201418840,0,0,0
9.218464300,0,0,1
9.219845660,0,0,0
9.236891020,0,0,1
9.238271960,0,0,0
9.255317360,0,0,1
9.256698740,0,0,0
9.273744660,0,0,1
9.275126000,0,0,0
9.292170480,0,0,1
9.293551800,0,0,0
9.310598580,0,0,1
9.311979860,0,0,0
9.329024620,0,0,1
9.330405940,0,0,0
9.347451760,0,0,1
9.348833080,0,0,0
9.365877060,0,0,1
9.367258020,0,0,0
9.384302400,0,0,1
9.385683340,0,0,0
9.402727040,0,0,1
9.404108340,0,0,0
9.421152240,0,0,1
9.422533420,0,0,0
9.439579620,0,0,1
9.440960820,0,0,0
9.458005420,0,0,1
9.459386400,0,0,0
9.476431360,0,0,1
9.477812660,0,0,0
9.494859200,0,0,1
9.496240480,0,0,0
9.513285600,0,0,1
9.514666940,0,0,0
9.531713080,0,0,1
9.533094380,0,0,0
9.550139680,0,0,1
9.551520540,0,0,0
9.568563880,0,0,1
9.569945140,0,0,0
9.586987960,0,0,1
9.588369000,0,0,0
9.605413640,0,0,1
9.606794880,0,0,0
9.623839840,0,0,1
9.625220820,0,0,0
9.642266580,0,0,1
9.643647880,0,0,0
9.660694080,0,0,1
9.662075240,0,0,0
9.679117820,0,0,1
9.680498740,0,0,0
9.697542740,0,0,1
9.698924020,0,0,0
9.715970120,0,0,1
9.717351360,0,0,0
9.734395280,0,0,1
9.735776240,0,0,0
9.752821080,0,0,1
9.754202260,0,0,0
9.771245240,0,0,1
9.772626580,0,0,0
9.789670460,0,0,1
9.791051380,0,0,0
9.808097140,0,0,1
9.809478040,0,0,0
9.826522580,0,0,1
9.827903800,0,0,0
9.844947500,0,0,1
9.846328740,0,0,0
9.863374060,0,0,1
9.864755340,0,0,0
9.881800680,0,0,1
9.883181920,0,0,0
9.900227360,0,0,1
9.901608660,0,0,0
9.918653340,0,0,1
9.920034660,0,0,0
9.937079120,0,0,1
9.938460200,0,0,0
9.955504300,0,0,1
9.956885540,0,0,0
9.973929580,0,0,1
9.975310460,0,0,0
9.992355140,0,0,1
9.993736400,0,0,0
10.010781260,0,0,1
10.012162540,0,0,0
10.029208240,0,0,1
10.030589420,0,0,0
10.047633920,0,0,1
10.049015180,0,0,0
10.066059300,0,0,1
10.067440680,0,0,0
10.084486460,0,0,1
10.085867640,0,0,0
10.102913280,0,0,1
