Time [s],Channel 0,Channel 1,Channel 2
0.000000000,0,0,0
0.010678980,0,0,1
0.012060060,0,0,0
0.029106120,0,0,1
0.030487500,0,0,0
0.047534240,0,0,1
0.048915640,0,0,0
0.065962320,0,0,1
0.067343400,0,0,0
0.084388900,0,0,1
0.085770100,0,0,0
0.102814860,0,0,1
0.104196200,0,0,0
0.121241200,0,0,1
0.122622200,0,0,0
0.139668140,0,0,1
0.141049480,0,0,0
0.158094760,0,0,1
0.159475760,0,0,0
0.176521560,0,0,1
0.177902920,0,0,0
0.194950100,0,0,1
0.196331420,0,0,0
0.213375100,0,0,1
0.214756440,0,0,0
0.231802500,0,0,1
0.233183600,0,0,0
0.250229720,0,0,1
0.251610740,0,0,0
0.268656100,0,0,1
0.270037420,0,0,0
0.287084160,0,0,1
0.288465540,0,0,0
0.305512360,0,0,1
0.306893800,0,0,0
0.323939080,0,0,1
0.325320140,0,0,0
0.342364660,0,0,1
0.343745820,0,0,0
0.360792460,0,0,1
0.362173480,0,0,0
0.379219100,0,0,1
0.380600100,0,0,0
0.397646400,0,0,1
0.399027800,0,0,0
0.416074980,0,0,1
0.417456400,0,0,0
0.434501240,0,0,1
0.435882580,0,0,0
0.452929160,0,0,1
0.454310580,0,0,0
0.471356200,0,0,1
0.472737620,0,0,0
0.489784140,0,0,1
0.491165140,0,0,0
0.508211420,0,0,1
0.509592420,0,0,0
0.526638340,0,0,1
0.528019740,0,0,0
0.545064420,0,0,1
0.546445440,0,0,0
0.563490240,0,0,1
0.564871300,0,0,0
0.581916660,0,0,1
0.583298020,0,0,0
0.600343360,0,0,1
0.601724460,0,0,0
0.618769760,0,0,1
0.620151080,0,0,0
0.637195560,0,0,1
0.638577040,0,0,0
0.655623500,0,0,1
0.657004920,0,0,0
0.674051580,0,0,1
0.675432940,0,0,0
0.692479940,0,0,1
0.693861340,0,0,0
0.710908400,0,0,1
0.712289460,0,0,0
0.729335100,0,0,1
0.730716520,0,0,0
0.747761880,0,0,1
0.749142960,0,0,0
0.766187600,0,0,1
0.767568640,0,0,0
0.784615540,0,0,1
0.785996940,0,0,0
0.798221720,0,1,0
0.803043940,0,1,1
0.804425320,0,1,0
0.808302380,0,0,0
0.821471840,0,0,1
0.822853180,0,0,0
0.839900320,0,0,1
0.841281520,0,0,0
0.858326560,0,0,1
0.859707980,0,0,0
0.876754740,0,0,1
0.878136240,0,0,0
0.895182480,0,0,1
0.896563900,0,0,0
0.913610700,0,0,1
0.914992140,0,0,0
0.932039800,0,0,1
0.933421120,0,0,0
0.950467760,0,0,1
0.951849240,0,0,0
0.968896320,0,0,1
0.970277380,0,0,0
0.987323940,0,0,1
0.988705320,0,0,0
1.005751520,0,0,1
1.007132880,0,0,0
1.024178280,0,0,1
1.025559760,0,0,0
1.042606440,0,0,1
1.043987860,0,0,0
1.061033420,0,0,1
1.062414760,0,0,0
1.079461000,0,0,1
1.080842460,0,0,0
1.097889660,0,0,1
1.099270920,0,0,0
1.116317320,0,0,1
1.117698820,0,0,0
1.134744320,0,0,1
1.136125600,0,0,0
1.153171040,0,0,1
1.154552400,0,0,0
1.171598640,0,0,1
1.172980020,0,0,0
1.190025880,0,0,1
1.191407180,0,0,0
1.208453260,0,0,1
1.209834580,0,0,0
1.226879880,0,0,1
1.228261160,0,0,0
1.245306900,0,0,1
1.246688180,0,0,0
1.263732540,0,0,1
1.265113580,0,0,0
1.282159120,0,0,1
1.283540200,0,0,0
1.300586020,0,0,1
1.301967080,0,0,0
1.319014540,0,0,1
1.320395820,0,0,0
1.337441640,0,0,1
1.338822940,0,0,0
1.355868020,0,0,1
1.357249420,0,0,0
1.374295540,0,0,1
1.375676900,0,0,0
1.392721180,0,0,1
1.394102560,0,0,0
1.411149500,0,0,1
1.412530900,0,0,0
1.429576640,0,0,1
1.430957980,0,0,0
1.448003800,0,0,1
1.449385000,0,0,0
1.466431300,0,0,1
1.467812680,0,0,0
1.484859600,0,0,1
1.486241020,0,0,0
1.503286220,0,0,1
1.504667580,0,0,0
1.521712200,0,0,1
1.523093380,0,0,0
1.540139740,0,0,1
1.541520940,0,0,0
1.558565880,0,0,1
1.559946900,0,0,0
1.576991960,0,0,1
1.578373400,0,0,0
1.595418540,0,0,1
1.596799940,0,0,0
1.613846020,0,0,1
1.615227400,0,0,0
1.632272960,0,0,1
1.633654000,0,0,0
1.650190640,0,0,1
1.651572020,0,0,0
1.668617440,0,0,1
1.669998460,0,0,0
1.687043000,0,0,1
1.688424340,0,0,0
1.705469780,0,0,1
1.706851200,0,0,0
1.723895720,0,0,1
1.725277080,0,0,0
1.742322940,0,0,1
1.743704280,0,0,0
1.760750280,0,0,1
1.762131200,0,0,0
1.779177180,0,0,1
1.780558380,0,0,0
1.797604340,0,0,1
1.798985660,0,0,0
1.816029720,0,0,1
1.817410700,0,0,0
1.834455400,0,0,1
1.835836460,0,0,0
1.852880440,0,0,1
1.855179580,0,0,0
1.871307600,0,0,1
1.873606780,0,0,0
1.889734320,0,0,1
1.892033000,0,0,0
1.908160740,0,0,1
1.910459820,0,0,0
1.926586940,0,0,1
1.928885740,0,0,0
1.945014680,0,0,1
1.947313660,0,0,0
1.963439460,0,0,1
1.965737940,0,0,0
1.981865400,0,0,1
1.984164500,0,0,0
2.000290100,0,0,1
2.002589280,0,0,0
2.018716200,0,0,1
2.021015360,0,0,0
2.037143800,0,0,1
2.039442640,0,0,0
2.055570320,0,0,1
2.057868860,0,0,0
2.073995320,0,0,1
2.076294400,0,0,0
2.092423100,0,0,1
2.094722240,0,0,0
2.110850500,0,0,1
2.113149620,0,0,0
2.129279260,0,0,1
2.131578600,0,0,0
2.147705980,0,0,1
2.150005160,0,0,0
2.166133360,0,0,1
2.168432220,0,0,0
2.184560500,0,0,1
2.185678980,1,0,1
2.186298580,1,1,1
2.186301700,1,0,1
2.186859600,1,0,0
2.194693340,0,0,0
2.202987840,0,0,1
2.205286900,0,0,0
2.221414520,0,0,1
2.223713220,0,0,0
2.239841200,0,0,1
2.242139800,0,0,0
2.258266580,0,0,1
2.260565260,0,0,0
2.276691580,0,0,1
2.278990760,0,0,0
2.295117920,0,0,1
2.297417020,0,0,0
2.313544920,0,0,1
2.315843900,0,0,0
2.331972560,0,0,1
2.334271540,0,0,0
2.350398200,0,0,1
2.352697280,0,0,0
2.368824080,0,0,1
2.371122980,0,0,0
2.387251020,0,0,1
2.389549960,0,0,0
2.405676840,0,0,1
2.407975920,0,0,0
2.424104280,0,0,1
2.426403400,0,0,0
2.442529700,0,0,1
2.444828840,0,0,0
2.460955520,0,0,1
2.463254200,0,0,0
2.479381880,0,0,1
2.481681040,0,0,0
2.497807520,0,0,1
2.500106720,0,0,0
2.516234380,0,0,1
2.518533140,0,0,0
2.534661280,0,0,1
2.536960480,0,0,0
2.553088540,0,0,1
2.555387740,0,0,0
2.571514240,0,0,1
2.573813320,0,0,0
2.589941420,0,0,1
2.592240600,0,0,0
2.608369220,0,0,1
2.610668180,0,0,0
2.626795360,0,0,1
2.629093800,0,0,0
2.645221280,0,0,1
2.647520340,0,0,0
2.663647400,0,0,1
2.665945920,0,0,0
2.682073600,0,0,1
2.684372680,0,0,0
2.700500040,0,0,1
2.702798880,0,0,0
2.718925800,0,0,1
2.721224240,0,0,0
2.737350680,0,0,1
2.739649680,0,0,0
2.755777760,0,0,1
2.758076440,0,0,0
2.774202860,0,0,1
2.776501380,0,0,0
2.792627260,0,0,1
2.794925980,0,0,0
2.811053920,0,0,1
2.813352980,0,0,0
2.829479720,0,0,1
2.831778340,0,0,0
2.847906240,0,0,1
2.850204960,0,0,0
2.866333180,0,0,1
2.866792160,0,0,0
2.884758620,0,0,1
2.885217660,0,0,0
2.903187060,0,0,1
2.903646100,0,0,0
2.921614900,0,0,1
2.922073900,0,0,0
2.940041860,0,0,1
2.940500860,0,0,0
2.958468760,0,0,1
2.958927700,0,0,0
2.976896280,0,0,1
2.977355280,0,0,0
2.995323780,0,0,1
2.995782820,0,0,0
3.013749460,0,0,1
3.014208420,0,0,0
3.032177600,0,0,1
3.032636540,0,0,0
3.050602880,0,0,1
3.051061780,0,0,0
3.069030420,0,0,1
3.069489440,0,0,0
3.087456860,0,0,1
3.087915760,0,0,0
3.105884060,0,0,1
3.106343060,0,0,0
3.124310200,0,0,1
3.124769200,0,0,0
3.142734920,0,0,1
3.143193940,0,0,0
3.161160760,0,0,1
3.161619640,0,0,0
3.179586540,0,0,1
3.180045460,0,0,0
3.198012400,0,0,1
3.198471420,0,0,0
3.216438640,0,0,1
3.216897640,0,0,0
3.234864680,0,0,1
3.235323680,0,0,0
3.253291460,0,0,1
3.253750360,0,0,0
3.271718340,0,0,1
3.272177220,0,0,0
3.290144000,0,0,1
3.290603020,0,0,0
3.308569180,0,0,1
3.309028080,0,0,0
3.326996040,0,0,1
3.327454940,0,0,0
3.345420900,0,0,1
3.345879920,0,0,0
3.363847500,0,0,1
3.364306500,0,0,0
3.382273560,0,0,1
3.382732440,0,0,0
3.400698080,0,0,1
3.401156940,0,0,0
3.419122520,0,0,1
3.419581400,0,0,0
3.437548160,0,0,1
3.438007060,0,0,0
3.455974100,0,0,1
3.456433080,0,0,0
3.474400240,0,0,1
3.474859180,0,0,0
3.492827920,0,0,1
3.493286940,0,0,0
3.511254280,0,0,1
3.511713200,0,0,0
3.529681440,0,0,1
3.530140460,0,0,0
3.548106600,0,0,1
3.548565600,0,0,0
3.566533240,0,0,1
3.566992300,0,0,0
3.584960420,0,0,1
3.585419320,0,0,0
3.603387980,0,0,1
3.603847020,0,0,0
3.621815560,0,0,1
3.622274460,0,0,0
3.640241800,0,0,1
3.640700700,0,0,0
3.658668360,0,0,1
3.659127280,0,0,0
3.677093300,0,0,1
3.677552240,0,0,0
3.695517780,0,0,1
3.695976720,0,0,0
3.713945260,0,0,1
3.714404280,0,0,0
3.732371020,0,0,1
3.732830040,0,0,0
3.750796420,0,0,1
3.751255360,0,0,0
3.769223500,0,0,1
3.769682480,0,0,0
3.787649360,0,0,1
3.788108240,0,0,0
3.806074920,0,0,1
3.806533940,0,0,0
3.824503080,0,0,1
3.824962100,0,0,0
3.842930020,0,0,1
3.843388900,0,0,0
3.861355220,0,0,1
3.863653660,0,0,0
3.879780740,0,0,1
3.882079860,0,0,0
3.898207440,0,0,1
3.900505880,0,0,0
3.916632200,0,0,1
3.918930920,0,0,0
3.935059460,0,0,1
3.937358360,0,0,0
3.953486820,0,0,1
3.955785760,0,0,0
3.971913060,0,0,1
3.974212180,0,0,0
3.990341160,0,0,1
3.992639720,0,0,0
4.008766060,0,0,1
4.011065260,0,0,0
4.027193380,0,0,1
4.029492120,0,0,0
4.045621200,0,0,1
4.047920380,0,0,0
4.064048080,0,0,1
4.066346700,0,0,0
4.082475300,0,0,1
4.084774360,0,0,0
4.100903380,0,0,1
4.103202220,0,0,0
4.119329660,0,0,1
4.121628540,0,0,0
4.137755760,0,0,1
4.140054820,0,0,0
4.156181180,0,0,1
4.158479640,0,0,0
4.174605040,0,0,1
4.176904100,0,0,0
4.193031680,0,0,1
4.195330900,0,0,0
4.211459940,0,0,1
4.213758440,0,0,0
4.229885120,0,0,1
4.232184120,0,0,0
4.248311280,0,0,1
4.250610260,0,0,0
4.266737760,0,0,1
4.269036920,0,0,0
4.285164860,0,0,1
4.287463420,0,0,0
4.303590920,0,0,1
4.305890160,0,0,0
4.322018880,0,0,1
4.324318100,0,0,0
4.340446680,0,0,1
4.342745320,0,0,0
4.358871180,0,0,1
4.361169700,0,0,0
4.377295800,0,0,1
4.379594400,0,0,0
4.395721360,0,0,1
4.398020100,0,0,0
4.414147520,0,0,1
4.416446440,0,0,0
4.432574220,0,0,1
4.434873240,0,0,0
4.451000640,0,0,1
4.453299660,0,0,0
4.469427260,0,0,1
4.471726060,0,0,0
4.487854820,0,0,1
4.490153580,0,0,0
4.506281360,0,0,1
4.508580380,0,0,0
4.524707360,0,0,1
4.527005840,0,0,0
4.543131940,0,0,1
4.545431020,0,0,0
4.561557740,0,0,1
4.563856280,0,0,0
4.579982800,0,0,1
4.582281960,0,0,0
4.598410060,0,0,1
4.600708720,0,0,0
4.616837380,0,0,1
4.619136440,0,0,0
4.635264760,0,0,1
4.637563880,0,0,0
4.653690680,0,0,1
4.655989360,0,0,0
4.672115300,0,0,1
4.674414180,0,0,0
4.690540920,0,0,1
4.692839360,0,0,0
4.708966780,0,0,1
4.711265280,0,0,0
4.727392780,0,0,1
4.729691360,0,0,0
4.745820600,0,0,1
4.748119440,0,0,0
4.764245760,0,0,1
4.766544800,0,0,0
4.782671640,0,0,1
4.784970440,0,0,0
4.801099440,0,0,1
4.803398660,0,0,0
4.819527180,0,0,1
4.821825720,0,0,0
4.837953040,0,0,1
4.840251620,0,0,0
4.856377980,0,0,1
4.856836860,0,0,0
4.874803860,0,0,1
4.875262840,0,0,0
4.893229760,0,0,1
4.893688800,0,0,0
4.911657400,0,0,1
4.912116420,0,0,0
4.930084640,0,0,1
4.930543540,0,0,0
4.948512440,0,0,1
4.948971440,0,0,0
4.966939460,0,0,1
4.967398320,0,0,0
4.985366740,0,0,1
4.985825760,0,0,0
5.003792120,0,0,1
5.004251160,0,0,0
5.022220180,0,0,1
5.022679200,0,0,0
5.040646920,0,0,1
5.041105960,0,0,0
5.059074700,0,0,1
5.059533740,0,0,0
5.077501400,0,0,1
5.077960320,0,0,0
5.095926000,0,0,1
5.096384880,0,0,0
5.114349620,0,0,1
5.114808620,0,0,0
5.132776120,0,0,1
5.133235040,0,0,0
5.151202940,0,0,1
5.151661860,0,0,0
5.169627940,0,0,1
5.170086840,0,0,0
5.188051660,0,0,1
5.188510660,0,0,0
5.206476600,0,0,1
5.206935480,0,0,0
5.224901540,0,0,1
5.225360540,0,0,0
5.243326340,0,0,1
5.243785340,0,0,0
5.261751620,0,0,1
5.262210640,0,0,0
5.280178040,0,0,1
5.280636920,0,0,0
5.298604400,0,0,1
5.299063440,0,0,0
5.317030020,0,0,1
5.317488880,0,0,0
5.335455560,0,0,1
5.335914460,0,0,0
5.353882860,0,0,1
5.354341880,0,0,0
5.372310580,0,0,1
5.372769480,0,0,0
5.390737680,0,0,1
5.391196680,0,0,0
5.409164540,0,0,1
5.409623580,0,0,0
5.427590440,0,0,1
5.428049460,0,0,0
5.446017700,0,0,1
5.446476740,0,0,0
5.464445380,0,0,1
5.464904280,0,0,0
5.482870180,0,0,1
5.483329060,0,0,0
5.501295900,0,0,1
5.501754920,0,0,0
5.519722280,0,0,1
5.520181180,0,0,0
5.538147180,0,0,1
5.538606080,0,0,0
5.556572680,0,0,1
5.557031680,0,0,0
5.574999560,0,0,1
5.575458560,0,0,0
5.593426600,0,0,1
5.593885520,0,0,0
5.611854500,0,0,1
5.612313520,0,0,0
5.630279860,0,0,1
5.630738880,0,0,0
5.648707980,0,0,1
5.649167040,0,0,0
5.667134100,0,0,1
5.667593160,0,0,0
5.685562380,0,0,1
5.686021340,0,0,0
5.703989520,0,0,1
5.704448540,0,0,0
5.722417820,0,0,1
5.722876860,0,0,0
5.740844060,0,0,1
5.741302980,0,0,0
5.759269960,0,0,1
5.759728900,0,0,0
5.777697020,0,0,1
5.778155940,0,0,0
5.796123540,0,0,1
5.796582480,0,0,0
5.814548800,0,0,1
5.815007700,0,0,0
5.832974240,0,0,1
5.833433260,0,0,0
5.851400480,0,0,1
5.851859380,0,0,0
5.869826060,0,0,1
5.872124680,0,0,0
5.888252680,0,0,1
5.890551960,0,0,0
5.906680260,0,0,1
5.908979200,0,0,0
5.925107780,0,0,1
5.927406920,0,0,0
5.943532300,0,0,1
5.945831560,0,0,0
5.961960120,0,0,1
5.964259160,0,0,0
5.980388280,0,0,1
5.982687100,0,0,0
5.998814900,0,0,1
6.001114220,0,0,0
6.017242360,0,0,1
6.019541160,0,0,0
6.035667420,0,0,1
6.037966500,0,0,0
6.054093940,0,0,1
6.056392980,0,0,0
6.072520660,0,0,1
6.074819200,0,0,0
6.090945380,0,0,1
6.093244340,0,0,0
6.109372400,0,0,1
6.111671620,0,0,0
6.127797860,0,0,1
6.130096920,0,0,0
6.146222920,0,0,1
6.148521940,0,0,0
6.164649940,0,0,1
6.166948740,0,0,0
6.183076440,0,0,1
6.185375600,0,0,0
6.201503920,0,0,1
6.203802660,0,0,0
6.219930120,0,0,1
6.222228780,0,0,0
6.238357060,0,0,1
6.240655800,0,0,0
6.256783020,0,0,1
6.259081960,0,0,0
6.275209700,0,0,1
6.277508780,0,0,0
6.293636880,0,0,1
6.295936100,0,0,0
6.312063840,0,0,1
6.314362720,0,0,0
6.330490180,0,0,1
6.332789420,0,0,0
6.348917980,0,0,1
6.351217200,0,0,0
6.367347040,0,0,1
6.369646200,0,0,0
6.385775820,0,0,1
6.388074480,0,0,0
6.404203340,0,0,1
6.406502500,0,0,0
6.422630520,0,0,1
6.424929340,0,0,0
6.441056840,0,0,1
6.443355920,0,0,0
6.459484300,0,0,1
6.461782940,0,0,0
6.477912380,0,0,1
6.480211620,0,0,0
6.496340720,0,0,1
6.498639940,0,0,0
6.514767520,0,0,1
6.517066820,0,0,0
6.533195920,0,0,1
6.535495060,0,0,0
6.551624040,0,0,1
6.553922820,0,0,0
6.570050140,0,0,1
6.572349300,0,0,0
6.588477880,0,0,1
6.590776520,0,0,0
6.606903040,0,0,1
6.609201860,0,0,0
6.625328160,0,0,1
6.627626720,0,0,0
6.643754620,0,0,1
6.646053220,0,0,0
6.662181040,0,0,1
6.664480000,0,0,0
6.680608100,0,0,1
6.682906820,0,0,0
6.699035060,0,0,1
6.701334380,0,0,0
6.717463700,0,0,1
6.719762740,0,0,0
6.735892040,0,0,1
6.738191480,0,0,0
6.754320320,0,0,1
6.756619560,0,0,0
6.772749800,0,0,1
6.775048960,0,0,0
6.791177200,0,0,1
6.793476000,0,0,0
6.809606360,0,0,1
6.811905800,0,0,0
6.828034240,0,0,1
6.830333540,0,0,0
6.846463800,0,0,1
6.848763140,0,0,0
6.864894020,0,0,1
6.866275540,0,0,0
6.883322160,0,0,1
6.884703380,0,0,0
6.901750340,0,0,1
6.903131400,0,0,0
6.920177420,0,0,1
6.921558480,0,0,0
6.938606080,0,0,1
6.939987480,0,0,0
6.957032900,0,0,1
6.958414060,0,0,0
6.975461400,0,0,1
6.976842840,0,0,0
6.993888740,0,0,1
6.995269780,0,0,0
7.012315160,0,0,1
7.013696580,0,0,0
7.030743400,0,0,1
7.032124540,0,0,0
7.049170840,0,0,1
7.050552300,0,0,0
7.067599040,0,0,1
7.068980460,0,0,0
7.086026980,0,0,1
7.087408380,0,0,0
7.104454960,0,0,1
7.105836360,0,0,0
7.122880740,0,0,1
7.124262200,0,0,0
7.141307500,0,0,1
7.142688900,0,0,0
7.159736860,0,0,1
7.161118300,0,0,0
7.178165020,0,0,1
7.179546380,0,0,0
7.196593120,0,0,1
7.197974500,0,0,0
7.215021200,0,0,1
7.216402660,0,0,0
7.233449280,0,0,1
7.234830400,0,0,0
7.251876780,0,0,1
7.253258200,0,0,0
7.270304480,0,0,1
7.271685800,0,0,0
7.288731880,0,0,1
7.290113100,0,0,0
7.307158020,0,0,1
7.308539340,0,0,0
7.325586020,0,0,1
7.326967340,0,0,0
7.344013040,0,0,1
7.345394480,0,0,0
7.362441200,0,0,1
7.363822240,0,0,0
7.380869500,0,0,1
7.382250600,0,0,0
7.399298500,0,0,1
7.400679880,0,0,0
7.417726660,0,0,1
7.419108060,0,0,0
7.436154820,0,0,1
7.437536080,0,0,0
7.454582240,0,0,1
7.455963460,0,0,0
7.473009620,0,0,1
7.474390840,0,0,0
7.491436640,0,0,1
7.492817800,0,0,0
7.509862400,0,0,1
7.511243740,0,0,0
7.528289160,0,0,1
7.529670160,0,0,0
7.546715560,0,0,1
7.548096880,0,0,0
7.565141000,0,0,1
7.566522340,0,0,0
7.583568860,0,0,1
7.584950180,0,0,0
7.601996720,0,0,1
7.603377760,0,0,0
7.620423620,0,0,1
7.621804980,0,0,0
7.638851700,0,0,1
7.640233080,0,0,0
7.657279960,0,0,1
7.658661240,0,0,0
7.675708580,0,0,1
7.677089740,0,0,0
7.694135380,0,0,1
7.695516400,0,0,0
7.712562140,0,0,1
7.713943440,0,0,0
7.730989120,0,0,1
7.732370180,0,0,0
7.749415500,0,0,1
7.750796700,0,0,0
7.767842740,0,0,1
7.769224080,0,0,0
7.786269680,0,0,1
7.787650700,0,0,0
7.804695860,0,0,1
7.806076800,0,0,0
7.823121600,0,0,1
7.824502620,0,0,0
7.841548560,0,0,1
7.842929940,0,0,0
7.859974640,0,0,1
7.861355680,0,0,0
7.878402020,0,0,1
7.879783400,0,0,0
7.896830600,0,0,1
7.898211980,0,0,0
7.915257400,0,0,1
7.916638560,0,0,0
7.933683760,0,0,1
7.935065060,0,0,0
7.952109680,0,0,1
7.953490940,0,0,0
7.970534700,0,0,1
7.971915620,0,0,0
7.988961360,0,0,1
7.990342700,0,0,0
8.007387500,0,0,1
8.008768640,0,0,0
8.025814040,0,0,1
8.027195320,0,0,0
8.044241500,0,0,1
8.045622820,0,0,0
8.062667960,0,0,1
8.064049320,0,0,0
8.081095640,0,0,1
8.082476620,0,0,0
8.099522820,0,0,1
8.100904200,0,0,0
8.117949800,0,0,1
8.119331160,0,0,0
8.136376960,0,0,1
8.137758280,0,0,0
8.154804140,0,0,1
8.156185540,0,0,0
8.173232660,0,0,1
8.174613920,0,0,0
8.191659720,0,0,1
8.193041100,0,0,0
8.210085960,0,0,1
8.211466960,0,0,0
8.228513400,0,0,1
8.229894640,0,0,0
8.246939840,0,0,1
8.248320960,0,0,0
8.265367600,0,0,1
8.266748800,0,0,0
8.283793400,0,0,1
8.285174740,0,0,0
8.302221740,0,0,1
8.303603080,0,0,0
8.320648480,0,0,1
8.322029740,0,0,0
8.339074380,0,0,1
8.340455580,0,0,0
8.357499820,0,0,1
8.358880940,0,0,0
8.375926940,0,0,1
8.377308280,0,0,0
8.394354660,0,0,1
8.395736020,0,0,0
8.412780880,0,0,1
8.414162260,0,0,0
8.431209340,0,0,1
8.432590380,0,0,0
8.449636560,0,0,1
8.451017540,0,0,0
8.468064100,0,0,1
8.469445480,0,0,0
8.486492880,0,0,1
8.487873940,0,0,0
8.504920100,0,0,1
8.506301480,0,0,0
8.523347060,0,0,1
8.524728100,0,0,0
8.541773020,0,0,1
8.542686040,1,0,1
8.542790660,1,1,1
8.542793620,1,0,1
8.543154100,1,0,0
8.551697240,0,0,0
8.560199220,0,0,1
8.561580400,0,0,0
8.578625860,0,0,1
8.580006980,0,0,0
8.597053740,0,0,1
8.598434900,0,0,0
8.615480520,0,0,1
8.616861840,0,0,0
8.633908100,0,0,1
8.635289300,0,0,0
8.652334940,0,0,1
8.653716040,0,0,0
8.670762840,0,0,1
8.672144220,0,0,0
8.689190000,0,0,1
8.690571360,0,0,0
8.707616720,0,0,1
8.708997700,0,0,0
8.726041920,0,0,1
8.727423260,0,0,0
8.744469780,0,0,1
8.745850840,0,0,0
8.762897420,0,0,1
8.764278800,0,0,0
8.781326420,0,0,1
8.782707820,0,0,0
8.799753000,0,0,1
8.801134000,0,0,0
8.818179060,0,0,1
8.819560400,0,0,0
8.836606180,0,0,1
8.837987580,0,0,0
8.855032340,0,0,1
8.856413460,0,0,0
8.873458420,0,0,1
8.874839780,0,0,0
8.891884700,0,0,1
8.893266000,0,0,0
8.910312300,0,0,1
8.911693640,0,0,0
8.928737520,0,0,1
8.930118480,0,0,0
8.947164440,0,0,1
8.948545400,0,0,0
8.965591740,0,0,1
8.966973080,0,0,0
8.984017560,0,0,1
8.985398660,0,0,0
9.002444540,0,0,1
9.003825480,0,0,0
9.020871380,0,0,1
9.022252460,0,0,0
9.039297260,0,0,1
9.040678580,0,0,0
9.057724180,0,0,1
9.059105480,0,0,0
9.076151040,0,0,1
9.077532060,0,0,0
9.094578960,0,0,1
9.095960060,0,0,0
9.113005460,0,0,1
9.114386460,0,0,0
9.131432240,0,0,1
9.132813600,0,0,0
9.149859720,0,0,1
9.151240940,0,0,0
9.168287980,0,0,1
9.169669140,0,0,0
9.186715040,0,0,1
9.188096040,0,0,0
9.205140580,0,0,1
9.206521940,0,0,0
9.223567780,0,0,1
9.224949120,0,0,0
9.241995100,0,0,1
9.243376460,0,0,0
9.260422080,0,0,1
9.261803480,0,0,0
9.278848760,0,0,1
9.280230160,0,0,0
9.297277380,0,0,1
9.298658620,0,0,0
9.315703300,0,0,1
9.317084440,0,0,0
9.334129660,0,0,1
9.335510980,0,0,0
9.352557660,0,0,1
9.353939060,0,0,0
9.370985740,0,0,1
9.372367140,0,0,0
9.389413600,0,0,1
9.390794700,0,0,0
9.407840600,0,0,1
9.409221960,0,0,0
9.426268760,0,0,1
9.427650180,0,0,0
9.444696340,0,0,1
9.446077360,0,0,0
9.463122180,0,0,1
9.464503580,0,0,0
9.481550780,0,0,1
9.482932000,0,0,0
9.499977280,0,0,1
9.501358400,0,0,0
9.518405780,0,0,1
9.519787200,0,0,0
9.536833100,0,0,1
9.538214300,0,0,0
9.555260240,0,0,1
9.556641640,0,0,0
9.573686820,0,0,1
9.575068220,0,0,0
9.592115580,0,0,1
9.593496820,0,0,0
9.610543020,0,0,1
9.611924220,0,0,0
9.628971860,0,0,1
9.630353320,0,0,0
9.647399720,0,0,1
9.648780980,0,0,0
9.665825900,0,0,1
9.667206920,0,0,0
9.684251320,0,0,1
9.685632420,0,0,0
9.702679060,0,0,1
9.704060480,0,0,0
9.721106100,0,0,1
9.722487380,0,0,0
9.739533640,0,0,1
9.740915020,0,0,0
9.757960780,0,0,1
9.759342220,0,0,0
9.776389840,0,0,1
9.777770860,0,0,0
9.794815120,0,0,1
9.796196140,0,0,0
9.813240880,0,0,1
9.814622280,0,0,0
9.831668780,0,0,1
9.833050040,0,0,0
9.850097060,0,0,1
9.851478060,0,0,0
9.868524160,0,0,1
9.869905540,0,0,0
9.886951800,0,0,1
9.888333200,0,0,0
9.905378540,0,0,1
9.906759960,0,0,0
9.923806840,0,0,1
9.925188280,0,0,0
9.942234900,0,0,1
9.943616320,0,0,0
9.960661480,0,0,1
9.962042900,0,0,0
9.979089100,0,0,1
9.980470360,0,0,0
9.997515620,0,0,1
9.998896600,0,0,0
10.015942840,0,0,1
10.017324240,0,0,0
10.034371280,0,0,1
10.035752280,0,0,0
10.052796680,0,0,1
10.054177980,0,0,0
10.071223520,0,0,1
10.072604880,0,0,0
10.089651300,0,0,1
10.091032680,0,0,0
10.108079260,0,0,1
