Time [s],Channel 0,Channel 1,Channel 2
0.000000000,0,0,0
0.014626060,0,0,1
0.016007120,0,0,0
0.033049480,0,0,1
0.034430160,0,0,0
0.051472860,0,0,1
0.052853580,0,0,0
0.069894880,0,0,1
0.071275780,0,0,0
0.088317060,0,0,1
0.089697860,0,0,0
0.106738280,0,0,1
0.108118980,0,0,0
0.125159700,0,0,1
0.126540340,0,0,0
0.143580660,0,0,1
0.144961420,0,0,0
0.162003440,0,0,1
0.163384460,0,0,0
0.180425720,0,0,1
0.181806440,0,0,0
0.198848940,0,0,1
0.200230060,0,0,0
0.217272420,0,0,1
0.218653160,0,0,0
0.235694640,0,0,1
0.237075760,0,0,0
0.254117060,0,0,1
0.255498100,0,0,0
0.272540440,0,0,1
0.273921520,0,0,0
0.290964340,0,0,1
0.292345420,0,0,0
0.309389380,0,0,1
0.310770380,0,0,0
0.327812780,0,0,1
0.329193740,0,0,0
0.346234300,0,0,1
0.347615380,0,0,0
0.364657780,0,0,1
0.366038860,0,0,0
0.383079720,0,0,1
0.384460420,0,0,0
0.401502100,0,0,1
0.402882800,0,0,0
0.419924060,0,0,1
0.421304740,0,0,0
0.438346060,0,0,1
0.439727000,0,0,0
0.456768200,0,0,1
0.458148880,0,0,0
0.475191980,0,0,1
0.476572960,0,0,0
0.493615580,0,0,1
0.494996200,0,0,0
0.512036840,0,0,1
0.513417500,0,0,0
0.530459060,0,0,1
0.531839860,0,0,0
0.548882100,0,0,1
0.550262840,0,0,0
0.567304760,0,0,1
0.568685800,0,0,0
0.585727760,0,0,1
0.587108860,0,0,0
0.604150060,0,0,1
0.605530880,0,0,0
0.622573040,0,0,1
0.623954220,0,0,0
0.640996800,0,0,1
0.642377640,0,0,0
0.659419720,0,0,1
0.660800740,0,0,0
0.677844320,0,0,1
0.679225200,0,0,0
0.696266760,0,0,1
0.697647520,0,0,0
0.714689940,0,0,1
0.716070640,0,0,0
0.733111900,0,0,1
0.734492980,0,0,0
0.751535600,0,0,1
0.752916520,0,0,0
0.769959860,0,0,1
0.771341020,0,0,0
0.788383460,0,0,1
0.789764420,0,0,0
0.806805660,0,0,1
0.808186400,0,0,0
0.825228620,0,0,1
0.826609460,0,0,0
0.843650940,0,0,1
0.845031720,0,0,0
0.862073460,0,0,1
0.863454520,0,0,0
0.880497580,0,0,1
0.881878300,0,0,0
0.898920020,0,0,1
0.900300860,0,0,0
0.917344180,0,0,1
0.918725200,0,0,0
0.935767660,0,0,1
0.937148460,0,0,0
0.954190940,0,0,1
0.955571660,0,0,0
0.972613980,0,0,1
0.973994780,0,0,0
0.991037240,0,0,1
0.991542380,0,1,1
0.992418080,0,1,0
1.001615800,0,0,0
1.009460980,0,0,1
1.010841980,0,0,0
1.027885440,0,0,1
1.029266560,0,0,0
1.046309660,0,0,1
1.047690360,0,0,0
1.064732860,0,0,1
1.066113920,0,0,0
1.083156420,0,0,1
1.084537500,0,0,0
1.101580460,0,0,1
1.102961320,0,0,0
1.120003160,0,0,1
1.121383940,0,0,0
1.138425920,0,0,1
1.139806720,0,0,0
1.156848880,0,0,1
1.158229980,0,0,0
1.175273060,0,0,1
1.176654100,0,0,0
1.193697380,0,0,1
1.195078520,0,0,0
1.212119520,0,0,1
1.213500540,0,0,0
1.230543700,0,0,1
1.231924740,0,0,0
1.248965620,0,0,1
1.250346700,0,0,0
1.267388020,0,0,1
1.268768740,0,0,0
1.285808720,0,0,1
1.287189400,0,0,0
1.304232620,0,0,1
1.305613720,0,0,0
1.322654640,0,0,1
1.324035400,0,0,0
1.341078120,0,0,1
1.342458780,0,0,0
1.359502040,0,0,1
1.360882740,0,0,0
1.377926000,0,0,1
1.379307020,0,0,0
1.396348060,0,0,1
1.397728980,0,0,0
1.414769400,0,0,1
1.416150440,0,0,0
1.433190880,0,0,1
1.434571720,0,0,0
1.451613340,0,0,1
1.452994060,0,0,0
1.470036580,0,0,1
1.471417640,0,0,0
1.488460020,0,0,1
1.489841020,0,0,0
1.506883120,0,0,1
1.508263860,0,0,0
1.525306920,0,0,1
1.526687640,0,0,0
1.543729220,0,0,1
1.545109920,0,0,0
1.562151580,0,0,1
1.563532580,0,0,0
1.580574020,0,0,1
1.581954680,0,0,0
1.598996720,0,0,1
1.600377480,0,0,0
1.617418540,0,0,1
1.618799620,0,0,0
1.635842380,0,0,1
1.637223200,0,0,0
1.654265020,0,0,1
1.655645600,0,0,0
1.672687080,0,0,1
1.674068060,0,0,0
1.691109460,0,0,1
1.692490160,0,0,0
1.709532720,0,0,1
1.710913840,0,0,0
1.727956200,0,0,1
1.729337060,0,0,0
1.746379680,0,0,1
1.747760380,0,0,0
1.764800340,0,0,1
1.766181080,0,0,0
1.783221480,0,0,1
1.784602380,0,0,0
1.801642920,0,0,1
1.803023800,0,0,0
1.820065980,0,0,1
1.821446940,0,0,0
1.838487760,0,0,1
1.839868880,0,0,0
1.856910020,0,0,1
1.858290720,0,0,0
1.875332960,0,0,1
1.876713980,0,0,0
1.893755580,0,0,1
1.895136700,0,0,0
1.912179880,0,0,1
1.913560700,0,0,0
1.930602180,0,0,1
1.931983220,0,0,0
1.949024820,0,0,1
1.950405880,0,0,0
1.967447440,0,0,1
1.968828280,0,0,0
1.977118320,1,0,0
1.977191960,0,0,0
1.981829700,1,0,0
1.981903300,0,0,0
1.985870540,0,0,1
1.986540080,1,0,1
1.986613640,0,0,1
1.987251600,0,0,0
1.991249540,1,0,0
1.991323080,0,0,0
1.995959860,1,0,0
1.996033440,0,0,0
2.000669920,1,0,0
2.000743480,0,0,0
2.004294340,0,0,1
2.005379580,1,0,1
2.005453160,0,0,1
2.005675220,0,0,0
2.010089200,1,0,0
2.010162780,0,0,0
2.014799120,1,0,0
2.014872720,0,0,0
2.019509040,1,0,0
2.019582600,0,0,0
2.022717720,0,0,1
2.024098740,0,0,0
2.024218540,1,0,0
2.024292100,0,0,0
2.028928100,1,0,0
2.029001640,0,0,0
2.033637420,1,0,0
2.033711000,0,0,0
2.038346800,1,0,0
2.038420400,0,0,0
2.041141180,0,0,1
2.042522260,0,0,0
2.043057400,1,0,0
2.043130980,0,0,0
2.047767440,1,0,0
2.047841020,0,0,0
2.052476980,1,0,0
2.052550560,0,0,0
2.057187020,1,0,0
2.057260620,0,0,0
2.059565000,0,0,1
2.060945800,0,0,0
2.061896860,1,0,0
2.061970440,0,0,0
2.066606820,1,0,0
2.066680380,0,0,0
2.071317040,1,0,0
2.071390620,0,0,0
2.076027120,1,0,0
2.076100680,0,0,0
2.077987240,0,0,1
2.079368080,0,0,0
2.080734560,1,0,0
2.080808080,0,0,0
2.085442880,1,0,0
2.085516440,0,0,0
2.090152640,1,0,0
2.090226200,0,0,0
2.094861760,1,0,0
2.094935360,0,0,0
2.096410880,0,0,1
2.097791720,0,0,0
2.099571260,1,0,0
2.099644840,0,0,0
2.104280680,1,0,0
2.104354220,0,0,0
2.108989920,1,0,0
2.109063460,0,0,0
2.113699700,1,0,0
2.113773280,0,0,0
2.114833840,0,0,1
2.116214920,0,0,0
2.118409140,1,0,0
2.118482700,0,0,0
2.123118280,1,0,0
2.123191860,0,0,0
2.127827820,1,0,0
2.127901380,0,0,0
2.132536860,1,0,0
2.132610420,0,0,0
2.133256020,0,0,1
2.134637080,0,0,0
2.137247020,1,0,0
2.137320620,0,0,0
2.141956760,1,0,0
2.142030300,0,0,0
2.146666500,1,0,0
2.146740060,0,0,0
2.148587580,0,0,1
2.149968780,0,0,0
2.151375220,1,0,0
2.151448800,0,0,0
2.156084020,1,0,0
2.156157580,0,0,0
2.160792840,1,0,0
2.160866420,0,0,0
2.165502480,1,0,0
2.165576080,0,0,0
2.167011680,0,0,1
2.168392500,0,0,0
2.170211920,1,0,0
2.170285500,0,0,0
2.174920920,1,0,0
2.174994480,0,0,0
2.179630040,1,0,0
2.179703560,0,0,0
2.184337640,1,0,0
2.184411180,0,0,0
2.185434820,0,0,1
2.186815900,0,0,0
2.189047200,1,0,0
2.189120760,0,0,0
2.193755720,1,0,0
2.193829260,0,0,0
2.198464180,1,0,0
2.198537740,0,0,0
2.203172660,1,0,0
2.203246240,0,0,0
2.203857820,0,0,1
2.205238720,0,0,0
2.207881200,1,0,0
2.207954760,0,0,0
2.212589820,1,0,0
2.212663360,0,0,0
2.217298260,1,0,0
2.217371780,0,0,0
2.222006260,1,0,0
2.222079820,0,0,0
2.222281560,0,0,1
2.223662640,0,0,0
2.226714920,1,0,0
2.226788480,0,0,0
2.231423680,1,0,0
2.231497240,0,0,0
2.236132320,1,0,0
2.236205900,0,0,0
2.240706080,0,0,1
2.240840500,1,0,1
2.240914040,0,0,1
2.242087160,0,0,0
2.245548360,1,0,0
2.245621900,0,0,0
2.250257200,1,0,0
2.250330740,0,0,0
2.254965420,1,0,0
2.255039000,0,0,0
2.259129100,0,0,1
2.259673440,1,0,1
2.259746960,0,0,1
2.260509760,0,0,0
2.264381400,1,0,0
2.264454960,0,0,0
2.269089180,1,0,0
2.269162720,0,0,0
2.273796240,1,0,0
2.273869800,0,0,0
2.277551380,0,0,1
2.278504040,1,0,1
2.278577600,0,0,1
2.278932080,0,0,0
2.283211460,1,0,0
2.283285000,0,0,0
2.287919260,1,0,0
2.287992820,0,0,0
2.292626520,1,0,0
2.292700100,0,0,0
2.295972980,0,0,1
2.297334940,1,0,1
2.297353660,1,0,0
2.297408480,0,0,0
2.302043380,1,0,0
2.302116960,0,0,0
2.306751940,1,0,0
2.306825520,0,0,0
2.311460460,1,0,0
2.311534060,0,0,0
2.314397340,0,0,1
2.315778200,0,0,0
2.316169440,1,0,0
2.316242980,0,0,0
2.320877160,1,0,0
2.320950680,0,0,0
2.325584680,1,0,0
2.325658240,0,0,0
2.330293780,1,0,0
2.330367340,0,0,0
2.332820100,0,0,1
2.334200740,0,0,0
2.335002720,1,0,0
2.335076300,0,0,0
2.339711780,1,0,0
2.339785320,0,0,0
2.344419020,1,0,0
2.344492580,0,0,0
2.349126740,1,0,0
2.349200300,0,0,0
2.351242280,0,0,1
2.353540640,0,0,0
2.353834480,1,0,0
2.353908000,0,0,0
2.358542680,1,0,0
2.358616220,0,0,0
2.363251440,1,0,0
2.363325040,0,0,0
2.367959360,1,0,0
2.368032900,0,0,0
2.369664000,0,0,1
2.371962120,0,0,0
2.372667680,1,0,0
2.372741240,0,0,0
2.377375580,1,0,0
2.377449120,0,0,0
2.382083900,1,0,0
2.382157420,0,0,0
2.386791560,1,0,0
2.386865100,0,0,0
2.388085860,0,0,1
2.390383920,0,0,0
2.391499060,1,0,0
2.391572560,0,0,0
2.391572740,1,0,0
2.391572760,0,0,0
2.396205440,1,0,0
2.396278980,0,0,0
2.400913040,1,0,0
2.400986560,0,0,0
2.405620540,1,0,0
2.405694080,0,0,0
2.406507840,0,0,1
2.408806460,0,0,0
2.410328140,1,0,0
2.410401680,0,0,0
2.415036160,1,0,0
2.415109700,0,0,0
2.419744320,1,0,0
2.419817880,0,0,0
2.424452360,1,0,0
2.424525920,0,0,0
2.424930040,0,0,1
2.427228360,0,0,0
2.429161020,1,0,0
2.429234580,0,0,0
2.433869600,1,0,0
2.433943160,0,0,0
2.438578860,1,0,0
2.438652420,0,0,0
2.443286920,1,0,0
2.443352240,1,0,1
2.443360500,0,0,1
2.445650280,0,0,0
2.447995520,1,0,0
2.448069080,0,0,0
2.452703700,1,0,0
2.452777280,0,0,0
2.457411380,1,0,0
2.457484920,0,0,0
2.461772720,0,0,1
2.462120080,1,0,1
2.462193640,0,0,1
2.464070800,0,0,0
2.466827980,1,0,0
2.466901520,0,0,0
2.471534980,1,0,0
2.471608520,0,0,0
2.476243400,1,0,0
2.476316960,0,0,0
2.480195880,0,0,1
2.480951440,1,0,1
2.481024980,0,0,1
2.482494520,0,0,0
2.485659420,1,0,0
2.485732980,0,0,0
2.490367420,1,0,0
2.490440980,0,0,0
2.495075840,1,0,0
2.495149400,0,0,0
2.498619820,0,0,1
2.499783580,1,0,1
2.499857180,0,0,1
2.500918160,0,0,0
2.504492020,1,0,0
2.504565560,0,0,0
2.509200440,1,0,0
2.509273940,0,0,0
2.513908880,1,0,0
2.513982420,0,0,0
2.517043580,0,0,1
2.518616780,1,0,1
2.518690360,0,0,1
2.519341820,0,0,0
2.523325020,1,0,0
2.523398600,0,0,0
2.528033320,1,0,0
2.528106880,0,0,0
2.532740760,1,0,0
2.532814280,0,0,0
2.535464820,0,0,1
2.537448320,1,0,1
2.537521840,0,0,1
2.537762920,0,0,0
2.542155860,1,0,0
2.542229400,0,0,0
2.546863680,1,0,0
2.546937280,0,0,0
2.551571420,1,0,0
2.551644960,0,0,0
2.553886880,0,0,1
2.556185700,0,0,0
2.556279200,1,0,0
2.556352720,0,0,0
2.560986380,1,0,0
2.561059920,0,0,0
2.565694000,1,0,0
2.565767540,0,0,0
2.570401140,1,0,0
2.570474680,0,0,0
2.572309900,0,0,1
2.574608360,0,0,0
2.575108280,1,0,0
2.575181820,0,0,0
2.579816160,1,0,0
2.579889700,0,0,0
2.584523480,1,0,0
2.584597000,0,0,0
2.589231560,1,0,0
2.589305120,0,0,0
2.590734340,0,0,1
2.593032580,0,0,0
2.593940060,1,0,0
2.594013620,0,0,0
2.598647540,1,0,0
2.598721080,0,0,0
2.603355040,1,0,0
2.603428620,0,0,0
2.608063480,1,0,0
2.608137040,0,0,0
2.609157740,0,0,1
2.611455840,0,0,0
2.612771720,1,0,0
2.612845280,0,0,0
2.617479440,1,0,0
2.617553000,0,0,0
2.622187020,1,0,0
2.622260560,0,0,0
2.626893680,1,0,0
2.626967200,0,0,0
2.627580740,0,0,1
2.629878980,0,0,0
2.631601520,1,0,0
2.631675080,0,0,0
2.636308700,1,0,0
2.636382260,0,0,0
2.641016680,1,0,0
2.641090240,0,0,0
2.645724900,1,0,0
2.645798440,0,0,0
2.646003720,0,0,1
2.648302520,0,0,0
2.650432440,1,0,0
2.650505980,0,0,0
2.655140540,1,0,0
2.655214080,0,0,0
2.659848520,1,0,0
2.659922100,0,0,0
2.664427360,0,0,1
2.664556780,1,0,1
2.664630320,0,0,1
2.666726020,0,0,0
2.669264980,1,0,0
2.669338540,0,0,0
2.673973000,1,0,0
2.674046540,0,0,0
2.678680340,1,0,0
2.678753900,0,0,0
2.682850160,0,0,1
2.683388200,1,0,1
2.683461760,0,0,1
2.685148400,0,0,0
2.688095600,1,0,0
2.688169140,0,0,0
2.692802580,1,0,0
2.692876100,0,0,0
2.697510300,1,0,0
2.697583840,0,0,0
2.701271760,0,0,1
2.702217160,1,0,1
2.702290700,0,0,1
2.703569880,0,0,0
2.706925280,1,0,0
2.706998840,0,0,0
2.711632540,1,0,0
2.711706060,0,0,0
2.716339880,1,0,0
2.716413440,0,0,0
2.716414000,1,0,0
2.716414020,0,0,0
2.719694600,0,0,1
2.721047880,1,0,1
2.721121440,0,0,1
2.721993300,0,0,0
2.725755200,1,0,0
2.725828740,0,0,0
2.726141100,0,1,0
2.726144400,0,0,0
2.730463060,1,0,0
2.730536640,0,0,0
2.735170520,1,0,0
2.735244100,0,0,0
2.738118780,0,0,1
2.739878700,1,0,1
2.739952220,0,0,1
2.740417280,0,0,0
2.744586340,1,0,0
2.744659900,0,0,0
2.749293300,1,0,0
2.749366820,0,0,0
2.754000600,1,0,0
2.754074140,0,0,0
2.756541920,0,0,1
2.758708800,1,0,1
2.758782380,0,0,1
2.758840120,0,0,0
2.763416540,1,0,0
2.763490120,0,0,0
2.768124820,1,0,0
2.768198320,0,0,0
2.772831360,1,0,0
2.772904880,0,0,0
2.774965220,0,0,1
2.777263180,0,0,0
2.777539620,1,0,0
2.777613160,0,0,0
2.782247780,1,0,0
2.782321340,0,0,0
2.786954220,1,0,0
2.787027740,0,0,0
2.791661100,1,0,0
2.791734640,0,0,0
2.793388000,0,0,1
2.795686060,0,0,0
2.796367540,1,0,0
2.796441020,0,0,0
2.796441200,1,0,0
2.796441220,0,0,0
2.801073360,1,0,0
2.801146880,0,0,0
2.805780740,1,0,0
2.805854260,0,0,0
2.810487780,1,0,0
2.810561300,0,0,0
2.811809120,0,0,1
2.814107620,0,0,0
2.815195180,1,0,0
2.815268720,0,0,0
2.819902420,1,0,0
2.819975940,0,0,0
2.824609480,1,0,0
2.824683000,0,0,0
2.829316580,1,0,0
2.829390120,0,0,0
2.830233440,0,0,1
2.832531740,0,0,0
2.834024500,1,0,0
2.834098040,0,0,0
2.838733020,1,0,0
2.838806620,0,0,0
2.843440820,1,0,0
2.843514380,0,0,0
2.848149680,1,0,0
2.848223220,0,0,0
2.848655940,0,0,1
2.850953980,0,0,0
2.852857680,1,0,0
2.852931240,0,0,0
2.857565300,1,0,0
2.857638820,0,0,0
2.862273000,1,0,0
2.862346520,0,0,0
2.866980600,1,0,0
2.867054140,0,0,0
2.867077720,0,0,1
2.869376460,0,0,0
2.871686980,1,0,0
2.871760520,0,0,0
2.876394340,1,0,0
2.876467880,0,0,0
2.881101980,1,0,0
2.881175540,0,0,0
2.885501600,0,0,1
2.885809540,1,0,1
2.885883120,0,0,1
2.885883380,1,0,1
2.885883400,0,0,1
2.887799880,0,0,0
2.890517040,1,0,0
2.890590600,0,0,0
2.895224580,1,0,0
2.895298140,0,0,0
2.899932040,1,0,0
2.900005580,0,0,0
2.903925140,0,0,1
2.904639260,1,0,1
2.904712800,0,0,1
2.906223900,0,0,0
2.909346400,1,0,0
2.909419940,0,0,0
2.914053120,1,0,0
2.914126660,0,0,0
2.918759980,1,0,0
2.918833520,0,0,0
2.922348240,0,0,1
2.923467760,1,0,1
2.923541320,0,0,1
2.924646920,0,0,0
2.928175480,1,0,0
2.928249020,0,0,0
2.932883020,1,0,0
2.932956560,0,0,0
2.937591060,1,0,0
2.937664620,0,0,0
2.937664800,1,0,0
2.937664820,0,0,0
2.940772020,0,0,1
2.942299160,1,0,1
2.942372740,0,0,1
2.943070760,0,0,0
2.947007120,1,0,0
2.947080700,0,0,0
2.951716020,1,0,0
2.951789580,0,0,0
2.956424780,1,0,0
2.956498320,0,0,0
2.959193920,0,0,1
2.961133280,1,0,1
2.961206840,0,0,1
2.961492680,0,0,0
2.965841700,1,0,0
2.965915280,0,0,0
2.970549360,1,0,0
2.970622920,0,0,0
2.975256480,1,0,0
2.975330020,0,0,0
2.977617060,0,0,1
2.979915680,0,0,0
2.979963960,1,0,0
2.980037520,0,0,0
2.984670540,1,0,0
2.984744080,0,0,0
2.989378040,1,0,0
2.989451620,0,0,0
2.994086000,1,0,0
2.994159560,0,0,0
2.996040700,0,0,1
2.998339380,0,0,0
2.998794220,1,0,0
2.998867780,0,0,0
3.003502380,1,0,0
3.003575920,0,0,0
3.008210320,1,0,0
3.008283900,0,0,0
3.012918700,1,0,0
3.012992280,0,0,0
3.014463380,0,0,1
3.016761480,0,0,0
3.017627180,1,0,0
3.017700700,0,0,0
3.022335140,1,0,0
3.022408700,0,0,0
3.027043460,1,0,0
3.027117040,0,0,0
3.031751260,1,0,0
3.031824760,0,0,0
3.032885220,0,0,1
3.035183800,0,0,0
3.036458220,1,0,0
3.036531760,0,0,0
3.041165780,1,0,0
3.041239340,0,0,0
3.045873300,1,0,0
3.045946860,0,0,0
3.050581220,1,0,0
3.050654780,0,0,0
3.050655560,1,0,0
3.050655580,0,0,0
3.051308600,0,0,1
3.053607000,0,0,0
3.055289360,1,0,0
3.055362880,0,0,0
3.059997740,1,0,0
3.060071260,0,0,0
3.064705340,1,0,0
3.064778900,0,0,0
3.069413580,1,0,0
3.069487140,0,0,0
3.069487640,1,0,0
3.069487660,0,0,0
3.069730900,0,0,1
3.072029500,0,0,0
3.074120660,1,0,0
3.074194220,0,0,0
3.078828780,1,0,0
3.078902280,0,0,0
3.083537060,1,0,0
3.083610620,0,0,0
3.088152680,0,0,1
3.088245120,1,0,1
3.088318680,0,0,1
3.090451020,0,0,0
3.092953580,1,0,0
3.093027120,0,0,0
3.097660560,1,0,0
3.097734100,0,0,0
3.102366960,1,0,0
3.102440520,0,0,0
3.106573720,0,0,1
3.107075220,1,0,1
3.107148780,0,0,1
3.108871740,0,0,0
3.111782800,1,0,0
3.111856340,0,0,0
3.111857020,1,0,0
3.111857040,0,0,0
3.116491380,1,0,0
3.116564960,0,0,0
3.121199800,1,0,0
3.121273380,0,0,0
3.124994060,0,0,1
3.125907940,1,0,1
3.125981460,0,0,1
3.127292080,0,0,0
3.130615900,1,0,0
3.130689480,0,0,0
3.135323580,1,0,0
3.135397140,0,0,0
3.135397340,1,0,0
3.135397360,0,0,0
3.140031020,1,0,0
3.140104580,0,0,0
3.143415660,0,0,1
3.144739040,1,0,1
3.144812580,0,0,1
3.145714320,0,0,0
3.149446560,1,0,0
3.149520080,0,0,0
3.154153780,1,0,0
3.154227340,0,0,0
3.158860400,1,0,0
3.158933940,0,0,0
3.161840280,0,0,1
3.163568240,1,0,1
3.163641800,0,0,1
3.164138500,0,0,0
3.168276560,1,0,0
3.168350120,0,0,0
3.172984780,1,0,0
3.173058320,0,0,0
3.177693100,1,0,0
3.177766640,0,0,0
3.180263320,0,0,1
3.182401740,1,0,1
3.182475320,0,0,1
3.182561380,0,0,0
3.187109040,1,0,0
3.187182620,0,0,0
3.191817120,1,0,0
3.191890700,0,0,0
3.196525100,1,0,0
3.196598660,0,0,0
3.198684500,0,0,1
3.200983180,0,0,0
3.201233220,1,0,0
3.201306760,0,0,0
3.205941320,1,0,0
3.206014860,0,0,0
3.210649380,1,0,0
3.210722940,0,0,0
3.215357540,1,0,0
3.215431100,0,0,0
3.217108560,0,0,1
3.219407200,0,0,0
3.220066480,1,0,0
3.220140020,0,0,0
3.224775460,1,0,0
3.224849020,0,0,0
3.229483360,1,0,0
3.229556920,0,0,0
3.234190980,1,0,0
3.234264520,0,0,0
3.235530800,0,0,1
3.237829420,0,0,0
3.238898640,1,0,0
3.238972180,0,0,0
3.243607040,1,0,0
3.243680580,0,0,0
3.248315460,1,0,0
3.248388980,0,0,0
3.253023340,1,0,0
3.253096920,0,0,0
3.253953440,0,0,1
3.256251620,0,0,0
3.257731240,1,0,0
3.257804800,0,0,0
3.262438140,1,0,0
3.262511680,0,0,0
3.267145800,1,0,0
3.267219300,0,0,0
3.271853520,1,0,0
3.271927040,0,0,0
3.272375160,0,0,1
3.274673920,0,0,0
3.276560240,1,0,0
3.276633800,0,0,0
3.281268120,1,0,0
3.281341680,0,0,0
3.285976020,1,0,0
3.286049600,0,0,0
3.290683780,1,0,0
3.290757300,0,0,0
3.290798200,0,0,1
3.293096820,0,0,0
3.295390960,1,0,0
3.295464480,0,0,0
3.300099080,1,0,0
3.300172640,0,0,0
3.304807760,1,0,0
3.304881300,0,0,0
3.309222260,0,0,1
3.309515480,1,0,1
3.309589020,0,0,1
3.311520700,0,0,0
3.314223140,1,0,0
3.314296700,0,0,0
3.318931180,1,0,0
3.319004780,0,0,0
3.323639200,1,0,0
3.323712740,0,0,0
3.327644100,0,0,1
3.328347460,1,0,1
3.328421020,0,0,1
3.329942240,0,0,0
3.333055760,1,0,0
3.333129340,0,0,0
3.337763700,1,0,0
3.337837240,0,0,0
3.342471600,1,0,0
3.342545120,0,0,0
3.346064980,0,0,1
3.347178960,1,0,1
3.347252520,0,0,1
3.348363000,0,0,0
3.351886520,1,0,0
3.351960080,0,0,0
3.356593540,1,0,0
3.356667060,0,0,0
3.361301340,1,0,0
3.361374900,0,0,0
3.364488260,0,0,1
3.364947220,0,0,0
3.366008780,1,0,0
3.366082360,0,0,0
3.370716280,1,0,0
3.370789800,0,0,0
3.375422760,1,0,0
3.375496280,0,0,0
3.380129660,1,0,0
3.380203180,0,0,0
3.382911420,0,0,1
3.383370360,0,0,0
3.384835980,1,0,0
3.384909520,0,0,0
3.389543600,1,0,0
3.389617140,0,0,0
3.394251480,1,0,0
3.394325040,0,0,0
3.398958420,1,0,0
3.399031960,0,0,0
3.401332280,0,0,1
3.401791100,0,0,0
3.403665460,1,0,0
3.403739000,0,0,0
3.408373140,1,0,0
3.408446660,0,0,0
3.413081160,1,0,0
3.413154700,0,0,0
3.417788700,1,0,0
3.417862220,0,0,0
3.419753580,0,0,1
3.420212400,0,0,0
3.422495800,1,0,0
3.422569360,0,0,0
3.427203280,1,0,0
3.427276840,0,0,0
3.431910900,1,0,0
3.431984480,0,0,0
3.436618920,1,0,0
3.436692460,0,0,0
3.438176380,0,0,1
3.438635200,0,0,0
3.441327340,1,0,0
3.441400900,0,0,0
3.446035520,1,0,0
3.446109060,0,0,0
3.450743340,1,0,0
3.450816900,0,0,0
3.455450460,1,0,0
3.455524020,0,0,0
3.456598880,0,0,1
3.457057840,0,0,0
3.460157840,1,0,0
3.460231420,0,0,0
3.464865780,1,0,0
3.464939300,0,0,0
3.469573060,1,0,0
3.469646600,0,0,0
3.474280680,1,0,0
3.474354240,0,0,0
3.475021560,0,0,1
3.475480360,0,0,0
3.478988560,1,0,0
3.479062100,0,0,0
3.479062340,1,0,0
3.479062360,0,0,0
3.483695820,1,0,0
3.483769360,0,0,0
3.488403280,1,0,0
3.488476820,0,0,0
3.493109740,1,0,0
3.493183280,0,0,0
3.493445140,0,0,1
3.493904080,0,0,0
3.497817420,1,0,0
3.497890980,0,0,0
3.502525700,1,0,0
3.502599280,0,0,0
3.507235000,1,0,0
3.507308580,0,0,0
3.511868860,0,0,1
3.511942560,1,0,1
3.512016120,0,0,1
3.512327720,0,0,0
3.516650560,1,0,0
3.516724060,0,0,0
3.521358360,1,0,0
3.521431880,0,0,0
3.521432360,1,0,0
3.521432380,0,0,0
3.526066180,1,0,0
3.526139720,0,0,0
3.530289520,0,0,1
3.530748340,0,0,0
3.530773780,1,0,0
3.530847340,0,0,0
3.530848020,1,0,0
3.530848040,0,0,0
3.535480920,1,0,0
3.535554500,0,0,0
3.540188540,1,0,0
3.540262080,0,0,0
3.544896020,1,0,0
3.544969580,0,0,0
3.548710700,0,0,1
3.549169600,0,0,0
3.549603760,1,0,0
3.549677320,0,0,0
3.554310460,1,0,0
3.554384020,0,0,0
3.559017580,1,0,0
3.559091120,0,0,0
3.563725620,1,0,0
3.563799160,0,0,0
3.567133680,0,0,1
3.567592500,0,0,0
3.568432780,1,0,0
3.568506340,0,0,0
3.573141180,1,0,0
3.573214720,0,0,0
3.577849900,1,0,0
3.577923440,0,0,0
3.582558780,1,0,0
3.582632340,0,0,0
3.585556960,0,0,1
3.586015760,0,0,0
3.587267080,1,0,0
3.587340620,0,0,0
3.591974880,1,0,0
3.592048400,0,0,0
3.596682900,1,0,0
